 time            vin             i(v1)           l0             
 2.00000000e-05  6.28318529e-04 -1.25663706e-07  5.00000000e+03 
 4.00000000e-05  1.25663705e-03 -2.51327411e-07  5.00000000e+03 
 8.00000000e-05  2.51327402e-03 -5.02654806e-07  5.00000000e+03 
 1.60000000e-04  5.02654740e-03 -1.00530948e-06  5.00000000e+03 
 3.20000000e-04  1.00530897e-02 -2.01061795e-06  5.00000000e+03 
 6.40000000e-04  2.01061388e-02 -4.02122778e-06  5.00000000e+03 
 1.28000000e-03  4.02119525e-02 -8.04239053e-06  5.00000000e+03 
 2.00000000e-03  6.28301994e-02 -1.25660399e-05  5.00000000e+03 
 2.12800000e-03  6.68510998e-02 -1.33702200e-05  5.00000000e+03 
 2.38400000e-03  7.48927681e-02 -1.49785537e-05  5.00000000e+03 
 2.89600000e-03  9.09755027e-02 -1.81951006e-05  5.00000000e+03 
 3.92000000e-03  1.23137981e-01 -2.46275963e-05  5.00000000e+03 
 5.92000000e-03  1.85939401e-01 -3.71878805e-05  5.00000000e+03 
 7.92000000e-03  2.48711460e-01 -4.97422922e-05  5.00000000e+03 
 9.92000000e-03  3.11444243e-01 -6.22888489e-05  5.00000000e+03 
 1.19200000e-02  3.74127847e-01 -7.48255696e-05  5.00000001e+03 
 1.39200000e-02  4.36752371e-01 -8.73504744e-05  5.00000001e+03 
 1.59200000e-02  4.99307926e-01 -9.98615856e-05  5.00000001e+03 
 1.79200000e-02  5.61784636e-01 -1.12356927e-04  5.00000001e+03 
 1.99200000e-02  6.24172633e-01 -1.24834527e-04  5.00000001e+03 
 2.19200000e-02  6.86462065e-01 -1.37292413e-04  5.00000002e+03 
 2.39200000e-02  7.48643098e-01 -1.49728620e-04  5.00000002e+03 
 2.59200000e-02  8.10705911e-01 -1.62141182e-04  5.00000002e+03 
 2.79200000e-02  8.72640704e-01 -1.74528141e-04  5.00000003e+03 
 2.99200000e-02  9.34437698e-01 -1.86887539e-04  5.00000003e+03 
 3.19200000e-02  9.96087132e-01 -1.99217426e-04  5.00000003e+03 
 3.39200000e-02  1.05757927e+00 -2.11515854e-04  5.00000004e+03 
 3.59200000e-02  1.11890441e+00 -2.23780882e-04  5.00000004e+03 
 3.79200000e-02  1.18005286e+00 -2.36010571e-04  5.00000004e+03 
 3.99200000e-02  1.24101496e+00 -2.48202992e-04  5.00000005e+03 
 4.19200000e-02  1.30178110e+00 -2.60356218e-04  5.00000005e+03 
 4.39200000e-02  1.36234167e+00 -2.72468331e-04  5.00000006e+03 
 4.59200000e-02  1.42268710e+00 -2.84537419e-04  5.00000006e+03 
 4.79200000e-02  1.48280788e+00 -2.96561574e-04  5.00000007e+03 
 4.99200000e-02  1.54269451e+00 -3.08538899e-04  5.00000008e+03 
 5.19200000e-02  1.60233753e+00 -3.20467502e-04  5.00000009e+03 
 5.39200000e-02  1.66172752e+00 -3.32345499e-04  5.00000010e+03 
 5.59200000e-02  1.72085510e+00 -3.44171015e-04  5.00000011e+03 
 5.79200000e-02  1.77971094e+00 -3.55942182e-04  5.00000011e+03 
 5.99200000e-02  1.83828575e+00 -3.67657142e-04  5.00000012e+03 
 6.19200000e-02  1.89657027e+00 -3.79314045e-04  5.00000013e+03 
 6.39200000e-02  1.95455529e+00 -3.90911049e-04  5.00000014e+03 
 6.59200000e-02  2.01223167e+00 -4.02446325e-04  5.00000015e+03 
 6.79200000e-02  2.06959030e+00 -4.13918049e-04  5.00000016e+03 
 6.99200000e-02  2.12662211e+00 -4.25324410e-04  5.00000016e+03 
 7.19200000e-02  2.18331811e+00 -4.36663608e-04  5.00000017e+03 
 7.39200000e-02  2.23966933e+00 -4.47933852e-04  5.00000018e+03 
 7.59200000e-02  2.29566688e+00 -4.59133361e-04  5.00000019e+03 
 7.79200000e-02  2.35130192e+00 -4.70260368e-04  5.00000020e+03 
 7.99200000e-02  2.40656567e+00 -4.81313115e-04  5.00000021e+03 
 8.19200000e-02  2.46144939e+00 -4.92289858e-04  5.00000022e+03 
 8.39200000e-02  2.51594441e+00 -5.03188862e-04  5.00000024e+03 
 8.59200000e-02  2.57004214e+00 -5.14008406e-04  5.00000024e+03 
 8.79200000e-02  2.62373404e+00 -5.24746783e-04  5.00000025e+03 
 8.99200000e-02  2.67701161e+00 -5.35402296e-04  5.00000026e+03 
 9.19200000e-02  2.72986645e+00 -5.45973263e-04  5.00000028e+03 
 9.39200000e-02  2.78229022e+00 -5.56458014e-04  5.00000028e+03 
 9.59200000e-02  2.83427462e+00 -5.66854895e-04  5.00000029e+03 
 9.79200000e-02  2.88581147e+00 -5.77162261e-04  5.00000030e+03 
 9.99200000e-02  2.93689261e+00 -5.87378487e-04  5.00000032e+03 
 1.01920000e-01  2.98750998e+00 -5.97501959e-04  5.00000033e+03 
 1.02170000e-01  2.99380414e+00 -5.98760792e-04  5.00000033e+03 
 1.02232500e-01  2.99537653e+00 -5.99075269e-04  5.00000033e+03 
 1.02357500e-01  2.99851992e+00 -5.99703947e-04  5.00000033e+03 
 1.02388750e-01  2.99930548e+00 -5.99861058e-04  5.00000033e+03 
 1.02396563e-01  2.99950185e+00 -5.99900333e-04  5.00000034e+03 
 1.02412188e-01  2.99989457e+00 -5.99978877e-04  5.00000034e+03 
 1.02416094e-01  2.99999275e+00 -5.99998512e-04  5.00000034e+03 
 1.02417070e-01  3.00001729e+00 -5.80403067e-04  5.16885157e+03 
 1.02419023e-01  3.00006638e+00 -5.01187246e-04  5.98591927e+03 
 1.02419512e-01  3.00007865e+00 -4.70973822e-04  6.36994782e+03 
 1.02420488e-01  3.00010319e+00 -4.13360049e-04  7.25784511e+03 
 1.02422441e-01  3.00015228e+00 -3.07623447e-04  9.75267763e+03 
 1.02425400e-01  3.00022664e+00 -2.49906491e-04  1.20053971e+04 
 1.02428350e-01  3.00030076e+00 -2.49912665e-04  1.20053971e+04 
 1.02432307e-01  3.00040022e+00 -2.49920950e-04  1.20053971e+04 
 1.02436724e-01  3.00051121e+00 -2.49930195e-04  1.20053971e+04 
 1.02445557e-01  3.00073320e+00 -2.49948685e-04  1.20053971e+04 
 1.02463224e-01  3.00117713e+00 -2.49985663e-04  1.20053971e+04 
 1.02498558e-01  3.00206490e+00 -2.50059610e-04  1.20053971e+04 
 1.02569225e-01  3.00383998e+00 -2.50207467e-04  1.20053971e+04 
 1.02710560e-01  3.00738836e+00 -2.50503033e-04  1.20053971e+04 
 1.02993229e-01  3.01447801e+00 -2.51093572e-04  1.20053971e+04 
 1.03558568e-01  3.02862877e+00 -2.52272271e-04  1.20053971e+04 
 1.04689246e-01  3.05681546e+00 -2.54620106e-04  1.20053971e+04 
 1.06689246e-01  3.10629480e+00 -2.58741531e-04  1.20053971e+04 
 1.08689246e-01  3.15528361e+00 -2.62822097e-04  1.20053971e+04 
 1.10689246e-01  3.20377418e+00 -2.66861161e-04  1.20053971e+04 
 1.12689246e-01  3.25175883e+00 -2.70858084e-04  1.20053971e+04 
 1.14689246e-01  3.29922999e+00 -2.74812235e-04  1.20053971e+04 
 1.16689246e-01  3.34618016e+00 -2.78722991e-04  1.20053971e+04 
 1.18689246e-01  3.39260193e+00 -2.82589733e-04  1.20053971e+04 
 1.20689246e-01  3.43848797e+00 -2.86411851e-04  1.20053971e+04 
 1.22689246e-01  3.48383104e+00 -2.90188741e-04  1.20053971e+04 
 1.24689246e-01  3.52862396e+00 -2.93919806e-04  1.20053971e+04 
 1.26689246e-01  3.57285968e+00 -2.97604459e-04  1.20053971e+04 
 1.28689246e-01  3.61653120e+00 -3.01242116e-04  1.20053971e+04 
 1.30689246e-01  3.65963163e+00 -3.04832204e-04  1.20053971e+04 
 1.32689246e-01  3.70215416e+00 -3.08374155e-04  1.20053971e+04 
 1.34689246e-01  3.74409207e+00 -3.11867410e-04  1.20053971e+04 
 1.36689246e-01  3.78543875e+00 -3.15311418e-04  1.20053971e+04 
 1.38689246e-01  3.82618767e+00 -3.18705635e-04  1.20053971e+04 
 1.40689246e-01  3.86633239e+00 -3.22049524e-04  1.20053971e+04 
 1.42689246e-01  3.90586657e+00 -3.25342558e-04  1.20053971e+04 
 1.44689246e-01  3.94478396e+00 -3.28584216e-04  1.20053971e+04 
 1.46689246e-01  3.98307843e+00 -3.31773987e-04  1.20053971e+04 
 1.48689246e-01  4.02074393e+00 -3.34911368e-04  1.20053971e+04 
 1.50689246e-01  4.05777450e+00 -3.37995861e-04  1.20053971e+04 
 1.52689246e-01  4.09416430e+00 -3.41026982e-04  1.20053971e+04 
 1.54689246e-01  4.12990759e+00 -3.44004250e-04  1.20053971e+04 
 1.56689246e-01  4.16499872e+00 -3.46927196e-04  1.20053971e+04 
 1.58689246e-01  4.19943214e+00 -3.49795358e-04  1.20053971e+04 
 1.60689246e-01  4.23320243e+00 -3.52608284e-04  1.20053971e+04 
 1.62689246e-01  4.26630425e+00 -3.55365528e-04  1.20053971e+04 
 1.64689246e-01  4.29873236e+00 -3.58066656e-04  1.20053971e+04 
 1.66689246e-01  4.33048166e+00 -3.60711242e-04  1.20053971e+04 
 1.68689246e-01  4.36154712e+00 -3.63298866e-04  1.20053971e+04 
 1.70689246e-01  4.39192385e+00 -3.65829122e-04  1.20053971e+04 
 1.72689246e-01  4.42160703e+00 -3.68301609e-04  1.20053971e+04 
 1.74689246e-01  4.45059200e+00 -3.70715937e-04  1.20053971e+04 
 1.76689246e-01  4.47887416e+00 -3.73071725e-04  1.20053971e+04 
 1.78689246e-01  4.50644906e+00 -3.75368600e-04  1.20053971e+04 
 1.80689246e-01  4.53331234e+00 -3.77606200e-04  1.20053971e+04 
 1.82689246e-01  4.55945976e+00 -3.79784172e-04  1.20053971e+04 
 1.84689246e-01  4.58488718e+00 -3.81902171e-04  1.20053971e+04 
 1.86689246e-01  4.60959060e+00 -3.83959864e-04  1.20053971e+04 
 1.88689246e-01  4.63356611e+00 -3.85956925e-04  1.20053971e+04 
 1.90689246e-01  4.65680993e+00 -3.87893039e-04  1.20053971e+04 
 1.92689246e-01  4.67931838e+00 -3.89767900e-04  1.20053971e+04 
 1.94689246e-01  4.70108791e+00 -3.91581212e-04  1.20053971e+04 
 1.96689246e-01  4.72211509e+00 -3.93332689e-04  1.20053971e+04 
 1.98689246e-01  4.74239659e+00 -3.95022055e-04  1.20053971e+04 
 2.00689246e-01  4.76192921e+00 -3.96649041e-04  1.20053971e+04 
 2.02689246e-01  4.78070987e+00 -3.98213393e-04  1.20053971e+04 
 2.04689246e-01  4.79873560e+00 -3.99714861e-04  1.20053971e+04 
 2.06689246e-01  4.81600355e+00 -4.01153210e-04  1.20053971e+04 
 2.08689246e-01  4.83251100e+00 -4.02528213e-04  1.20053971e+04 
 2.10689246e-01  4.84825534e+00 -4.03839651e-04  1.20053971e+04 
 2.12689246e-01  4.86323408e+00 -4.05087319e-04  1.20053971e+04 
 2.14689246e-01  4.87744486e+00 -4.06271018e-04  1.20053971e+04 
 2.16689246e-01  4.89088544e+00 -4.07390563e-04  1.20053971e+04 
 2.18689246e-01  4.90355369e+00 -4.08445776e-04  1.20053971e+04 
 2.20689246e-01  4.91544761e+00 -4.09436490e-04  1.20053971e+04 
 2.22689246e-01  4.92656533e+00 -4.10362550e-04  1.20053971e+04 
 2.24689246e-01  4.93690508e+00 -4.11223809e-04  1.20053971e+04 
 2.26689246e-01  4.94646524e+00 -4.12020131e-04  1.20053971e+04 
 2.28689246e-01  4.95524430e+00 -4.12751390e-04  1.20053971e+04 
 2.30689246e-01  4.96324086e+00 -4.13417471e-04  1.20053971e+04 
 2.32689246e-01  4.97045367e+00 -4.14018268e-04  1.20053971e+04 
 2.34689246e-01  4.97688159e+00 -4.14553687e-04  1.20053971e+04 
 2.36689246e-01  4.98252360e+00 -4.15023643e-04  1.20053971e+04 
 2.38689246e-01  4.98737882e+00 -4.15428063e-04  1.20053971e+04 
 2.40689246e-01  4.99144647e+00 -4.15766881e-04  1.20053971e+04 
 2.42689246e-01  4.99472591e+00 -4.16040045e-04  1.20053971e+04 
 2.44689246e-01  4.99721662e+00 -4.16247511e-04  1.20053971e+04 
 2.46689246e-01  4.99891822e+00 -4.16389247e-04  1.20053971e+04 
 2.48689246e-01  4.99983043e+00 -4.16465231e-04  1.20053971e+04 
 2.50689246e-01  4.99995311e+00 -4.16475450e-04  1.20053971e+04 
 2.52689246e-01  4.99928624e+00 -4.16419902e-04  1.20053971e+04 
 2.54689246e-01  4.99782993e+00 -4.16298597e-04  1.20053971e+04 
 2.56689246e-01  4.99558440e+00 -4.16111553e-04  1.20053971e+04 
 2.58689246e-01  4.99255000e+00 -4.15858801e-04  1.20053971e+04 
 2.60689246e-01  4.98872723e+00 -4.15540380e-04  1.20053971e+04 
 2.62689246e-01  4.98411668e+00 -4.15156340e-04  1.20053971e+04 
 2.64689246e-01  4.97871908e+00 -4.14706742e-04  1.20053971e+04 
 2.66689246e-01  4.97253528e+00 -4.14191657e-04  1.20053971e+04 
 2.68689246e-01  4.96556626e+00 -4.13611167e-04  1.20053971e+04 
 2.70689246e-01  4.95781312e+00 -4.12965362e-04  1.20053971e+04 
 2.72689246e-01  4.94927708e+00 -4.12254345e-04  1.20053971e+04 
 2.74689246e-01  4.93995950e+00 -4.11478229e-04  1.20053971e+04 
 2.76689246e-01  4.92986184e+00 -4.10637136e-04  1.20053971e+04 
 2.78689246e-01  4.91898569e+00 -4.09731198e-04  1.20053971e+04 
 2.80689246e-01  4.90733278e+00 -4.08760559e-04  1.20053971e+04 
 2.82689246e-01  4.89490495e+00 -4.07725371e-04  1.20053971e+04 
 2.84689246e-01  4.88170415e+00 -4.06625800e-04  1.20053971e+04 
 2.86689246e-01  4.86773248e+00 -4.05462017e-04  1.20053971e+04 
 2.88689246e-01  4.85299214e+00 -4.04234207e-04  1.20053971e+04 
 2.90689246e-01  4.83748545e+00 -4.02942564e-04  1.20053971e+04 
 2.92689246e-01  4.82121486e+00 -4.01587291e-04  1.20053971e+04 
 2.94689246e-01  4.80418296e+00 -4.00168604e-04  1.20053971e+04 
 2.96689246e-01  4.78639241e+00 -3.98686725e-04  1.20053971e+04 
 2.98689246e-01  4.76784604e+00 -3.97141889e-04  1.20053971e+04 
 3.00689246e-01  4.74854677e+00 -3.95534339e-04  1.20053971e+04 
 3.02689246e-01  4.72849765e+00 -3.93864330e-04  1.20053971e+04 
 3.04689246e-01  4.70770184e+00 -3.92132125e-04  1.20053971e+04 
 3.06689246e-01  4.68616264e+00 -3.90337998e-04  1.20053971e+04 
 3.08689246e-01  4.66388343e+00 -3.88482233e-04  1.20053971e+04 
 3.10689246e-01  4.64086774e+00 -3.86565121e-04  1.20053971e+04 
 3.12689246e-01  4.61711921e+00 -3.84586966e-04  1.20053971e+04 
 3.14689246e-01  4.59264158e+00 -3.82548081e-04  1.20053971e+04 
 3.16689246e-01  4.56743872e+00 -3.80448786e-04  1.20053971e+04 
 3.18689246e-01  4.54151460e+00 -3.78289415e-04  1.20053971e+04 
 3.20689246e-01  4.51487333e+00 -3.76070307e-04  1.20053971e+04 
 3.22689246e-01  4.48751911e+00 -3.73791813e-04  1.20053971e+04 
 3.24689246e-01  4.45945626e+00 -3.71454293e-04  1.20053971e+04 
 3.26689246e-01  4.43068921e+00 -3.69058117e-04  1.20053971e+04 
 3.28689246e-01  4.40122250e+00 -3.66603661e-04  1.20053971e+04 
 3.30689246e-01  4.37106078e+00 -3.64091315e-04  1.20053971e+04 
 3.32689246e-01  4.34020883e+00 -3.61521475e-04  1.20053971e+04 
 3.34689246e-01  4.30867150e+00 -3.58894546e-04  1.20053971e+04 
 3.36689246e-01  4.27645379e+00 -3.56210943e-04  1.20053971e+04 
 3.38689246e-01  4.24356077e+00 -3.53471091e-04  1.20053971e+04 
 3.40689246e-01  4.20999765e+00 -3.50675421e-04  1.20053971e+04 
 3.42689246e-01  4.17576972e+00 -3.47824376e-04  1.20053971e+04 
 3.44689246e-01  4.14088239e+00 -3.44918405e-04  1.20053971e+04 
 3.46689246e-01  4.10534116e+00 -3.41957968e-04  1.20053971e+04 
 3.48689246e-01  4.06915165e+00 -3.38943531e-04  1.20053971e+04 
 3.50689246e-01  4.03231958e+00 -3.35875572e-04  1.20053971e+04 
 3.52689246e-01  3.99485076e+00 -3.32754573e-04  1.20053971e+04 
 3.54689246e-01  3.95675110e+00 -3.29581029e-04  1.20053971e+04 
 3.56689246e-01  3.91802663e+00 -3.26355440e-04  1.20053971e+04 
 3.58689246e-01  3.87868345e+00 -3.23078316e-04  1.20053971e+04 
 3.60689246e-01  3.83872779e+00 -3.19750175e-04  1.20053971e+04 
 3.62689246e-01  3.79816594e+00 -3.16371540e-04  1.20053971e+04 
 3.64689246e-01  3.75700432e+00 -3.12942948e-04  1.20053971e+04 
 3.66689246e-01  3.71524943e+00 -3.09464937e-04  1.20053971e+04 
 3.68689246e-01  3.67290786e+00 -3.05938059e-04  1.20053971e+04 
 3.70689246e-01  3.62998629e+00 -3.02362870e-04  1.20053971e+04 
 3.72689246e-01  3.58649150e+00 -2.98739934e-04  1.20053971e+04 
 3.74689246e-01  3.54243037e+00 -2.95069823e-04  1.20053971e+04 
 3.76689246e-01  3.49780985e+00 -2.91353118e-04  1.20053971e+04 
 3.78689246e-01  3.45263698e+00 -2.87590404e-04  1.20053971e+04 
 3.80689246e-01  3.40691889e+00 -2.83782277e-04  1.20053971e+04 
 3.82689246e-01  3.36066282e+00 -2.79929337e-04  1.20053971e+04 
 3.84689246e-01  3.31387606e+00 -2.76032193e-04  1.20053971e+04 
 3.86689246e-01  3.26656600e+00 -2.72091460e-04  1.20053971e+04 
 3.88689246e-01  3.21874011e+00 -2.68107761e-04  1.20053971e+04 
 3.90689246e-01  3.17040595e+00 -2.64081725e-04  1.20053971e+04 
 3.92689246e-01  3.12157114e+00 -2.60013987e-04  1.20053971e+04 
 3.94689246e-01  3.07224340e+00 -2.55905190e-04  1.20053971e+04 
 3.96689246e-01  3.02243051e+00 -2.51755982e-04  1.20053971e+04 
 3.98689246e-01  2.97214035e+00 -2.47567019e-04  1.20053971e+04 
 4.00689246e-01  2.92138086e+00 -2.43338963e-04  1.20053971e+04 
 4.02689246e-01  2.87016004e+00 -2.39072480e-04  1.20053971e+04 
 4.04689246e-01  2.81848599e+00 -2.34768246e-04  1.20053971e+04 
 4.06689246e-01  2.76636687e+00 -2.30426938e-04  1.20053971e+04 
 4.08689246e-01  2.71381091e+00 -2.26049244e-04  1.20053971e+04 
 4.10689246e-01  2.66082641e+00 -2.21635853e-04  1.20053971e+04 
 4.12689246e-01  2.60742173e+00 -2.17187464e-04  1.20053971e+04 
 4.14689246e-01  2.55360531e+00 -2.12704779e-04  1.20053971e+04 
 4.16689246e-01  2.49938565e+00 -2.08188504e-04  1.20053971e+04 
 4.18689246e-01  2.44477130e+00 -2.03639355e-04  1.20053971e+04 
 4.20689246e-01  2.38977090e+00 -1.99058048e-04  1.20053971e+04 
 4.22689246e-01  2.33439312e+00 -1.94445308e-04  1.20053971e+04 
 4.24689246e-01  2.27864672e+00 -1.89801863e-04  1.20053971e+04 
 4.26689246e-01  2.22254049e+00 -1.85128446e-04  1.20053971e+04 
 4.28689246e-01  2.16608329e+00 -1.80425795e-04  1.20053971e+04 
 4.30689246e-01  2.10928405e+00 -1.75694652e-04  1.20053971e+04 
 4.32689246e-01  2.05215173e+00 -1.70935765e-04  1.20053971e+04 
 4.34689246e-01  1.99469534e+00 -1.66149886e-04  1.20053971e+04 
 4.36689246e-01  1.93692397e+00 -1.61337770e-04  1.20053971e+04 
 4.38689246e-01  1.87884674e+00 -1.56500176e-04  1.20053971e+04 
 4.40689246e-01  1.82047282e+00 -1.51637869e-04  1.20053971e+04 
 4.42689246e-01  1.76181143e+00 -1.46751617e-04  1.20053971e+04 
 4.44689246e-01  1.70287182e+00 -1.41842191e-04  1.20053971e+04 
 4.46689246e-01  1.64366331e+00 -1.36910367e-04  1.20053971e+04 
 4.48689246e-01  1.58419525e+00 -1.31956923e-04  1.20053971e+04 
 4.50689246e-01  1.52447702e+00 -1.26982641e-04  1.20053971e+04 
 4.52689246e-01  1.46451806e+00 -1.21988308e-04  1.20053971e+04 
 4.54689246e-01  1.40432784e+00 -1.16974710e-04  1.20053971e+04 
 4.56689246e-01  1.34391586e+00 -1.11942642e-04  1.20053971e+04 
 4.58689246e-01  1.28329165e+00 -1.06892896e-04  1.20053971e+04 
 4.60689246e-01  1.22246480e+00 -1.01826271e-04  1.20053971e+04 
 4.62689246e-01  1.16144491e+00 -9.67435656e-05  1.20053971e+04 
 4.64689246e-01  1.10024162e+00 -9.16455838e-05  1.20053971e+04 
 4.66689246e-01  1.03886458e+00 -8.65331300e-05  1.20053971e+04 
 4.68689246e-01  9.77323494e-01 -8.14070117e-05  1.20053971e+04 
 4.70689246e-01  9.15628077e-01 -7.62680382e-05  1.20053971e+04 
 4.72689246e-01  8.53788072e-01 -7.11170211e-05  1.20053971e+04 
 4.74689246e-01  7.91813244e-01 -6.59547739e-05  1.20053971e+04 
 4.76689246e-01  7.29713380e-01 -6.07821116e-05  1.20053971e+04 
 4.78689246e-01  6.67498285e-01 -5.55998511e-05  1.20053971e+04 
 4.80689246e-01  6.05177785e-01 -5.04088107e-05  1.20053971e+04 
 4.82689246e-01  5.42761720e-01 -4.52098102e-05  1.20053971e+04 
 4.84689246e-01  4.80259947e-01 -4.00036706e-05  1.20053971e+04 
 4.86689246e-01  4.17682335e-01 -3.47912139e-05  1.20053971e+04 
 4.88689246e-01  3.55038766e-01 -2.95732633e-05  1.20053971e+04 
 4.90689246e-01  2.92339132e-01 -2.43506427e-05  1.20053971e+04 
 4.92689246e-01  2.29593335e-01 -1.91241768e-05  1.20053971e+04 
 4.94689246e-01  1.66811283e-01 -1.38946911e-05  1.20053971e+04 
 4.96689246e-01  1.04002888e-01 -8.66301118e-06  1.20053971e+04 
 4.98689246e-01  4.11780710e-02 -3.42996329e-06  1.20053971e+04 
 5.00689246e-01 -2.16532489e-02  1.80362623e-06  1.20053971e+04 
 5.02689246e-01 -8.44811495e-02  7.03693093e-06  1.20053971e+04 
 5.04689246e-01 -1.47295710e-01  1.22691244e-05  1.20053971e+04 
 5.06689246e-01 -2.10087010e-01  1.74993805e-05  1.20053971e+04 
 5.08689246e-01 -2.72845135e-01  2.27268732e-05  1.20053971e+04 
 5.10689246e-01 -3.35560175e-01  2.79507771e-05  1.20053971e+04 
 5.12689246e-01 -3.98222226e-01  3.31702672e-05  1.20053971e+04 
 5.14689246e-01 -4.60821393e-01  3.83845193e-05  1.20053971e+04 
 5.16689246e-01 -5.23347791e-01  4.35927101e-05  1.20053971e+04 
 5.18689246e-01 -5.85791546e-01  4.87940171e-05  1.20053971e+04 
 5.20689246e-01 -6.48142798e-01  5.39876190e-05  1.20053971e+04 
 5.22689246e-01 -7.10391701e-01  5.91726956e-05  1.20053971e+04 
 5.24689246e-01 -7.72528424e-01  6.43484281e-05  1.20053971e+04 
 5.26689246e-01 -8.34543157e-01  6.95139993e-05  1.20053971e+04 
 5.28689246e-01 -8.96426105e-01  7.46685934e-05  1.20053971e+04 
 5.30689246e-01 -9.58167498e-01  7.98113965e-05  1.20053971e+04 
 5.32689246e-01 -1.01975758e+00  8.49415965e-05  1.20053971e+04 
 5.34689246e-01 -1.08118664e+00  9.00583832e-05  1.20053971e+04 
 5.36689246e-01 -1.14244496e+00  9.51609486e-05  1.20053971e+04 
 5.38689246e-01 -1.20352288e+00  1.00248487e-04  1.20053971e+04 
