 time            vin             i(v1)           l0             
 2.00000000e-05  6.28318529e-04 -1.25663706e-07  5.00000000e+03 
 4.00000000e-05  1.25663705e-03 -2.51327411e-07  5.00000000e+03 
 8.00000000e-05  2.51327402e-03 -5.02654806e-07  5.00000000e+03 
 1.60000000e-04  5.02654740e-03 -1.00530948e-06  5.00000000e+03 
 3.20000000e-04  1.00530897e-02 -2.01061795e-06  5.00000000e+03 
 6.40000000e-04  2.01061388e-02 -4.02122778e-06  5.00000000e+03 
 1.28000000e-03  4.02119525e-02 -8.04239053e-06  5.00000000e+03 
 2.00000000e-03  6.28301994e-02 -1.25660399e-05  5.00000001e+03 
 2.12800000e-03  6.68510998e-02 -1.33702200e-05  5.00000001e+03 
 2.38400000e-03  7.48927681e-02 -1.49785537e-05  5.00000001e+03 
 2.89600000e-03  9.09755027e-02 -1.81951006e-05  5.00000002e+03 
 3.92000000e-03  1.23137981e-01 -2.46275962e-05  5.00000003e+03 
 5.92000000e-03  1.85939401e-01 -3.71878800e-05  5.00000007e+03 
 7.92000000e-03  2.48711460e-01 -4.97422912e-05  5.00000011e+03 
 9.92000000e-03  3.11444243e-01 -6.22888471e-05  5.00000016e+03 
 1.19200000e-02  3.74127847e-01 -7.48255664e-05  5.00000023e+03 
 1.39200000e-02  4.36752371e-01 -8.73504693e-05  5.00000031e+03 
 1.59200000e-02  4.99307926e-01 -9.98615779e-05  5.00000040e+03 
 1.79200000e-02  5.61784636e-01 -1.12356917e-04  5.00000051e+03 
 1.99200000e-02  6.24172633e-01 -1.24834512e-04  5.00000063e+03 
 2.19200000e-02  6.86462065e-01 -1.37292393e-04  5.00000077e+03 
 2.39200000e-02  7.48643098e-01 -1.49728593e-04  5.00000092e+03 
 2.59200000e-02  8.10705911e-01 -1.62141149e-04  5.00000108e+03 
 2.79200000e-02  8.72640704e-01 -1.74528099e-04  5.00000124e+03 
 2.99200000e-02  9.34437698e-01 -1.86887488e-04  5.00000143e+03 
 3.19200000e-02  9.96087132e-01 -1.99217363e-04  5.00000162e+03 
 3.39200000e-02  1.05757927e+00 -2.11515779e-04  5.00000183e+03 
 3.59200000e-02  1.11890441e+00 -2.23780792e-04  5.00000205e+03 
 3.79200000e-02  1.18005286e+00 -2.36010466e-04  5.00000229e+03 
 3.99200000e-02  1.24101496e+00 -2.48202869e-04  5.00000254e+03 
 4.19200000e-02  1.30178110e+00 -2.60356076e-04  5.00000279e+03 
 4.39200000e-02  1.36234167e+00 -2.72468168e-04  5.00000306e+03 
 4.59200000e-02  1.42268710e+00 -2.84537233e-04  5.00000334e+03 
 4.79200000e-02  1.48280788e+00 -2.96561363e-04  5.00000364e+03 
 4.99200000e-02  1.54269451e+00 -3.08538661e-04  5.00000395e+03 
 5.19200000e-02  1.60233753e+00 -3.20467235e-04  5.00000426e+03 
 5.39200000e-02  1.66172752e+00 -3.32345201e-04  5.00000459e+03 
 5.59200000e-02  1.72085510e+00 -3.44170684e-04  5.00000493e+03 
 5.79200000e-02  1.77971094e+00 -3.55941815e-04  5.00000528e+03 
 5.99200000e-02  1.83828575e+00 -3.67656736e-04  5.00000566e+03 
 6.19200000e-02  1.89657027e+00 -3.79313598e-04  5.00000603e+03 
 6.39200000e-02  1.95455529e+00 -3.90910560e-04  5.00000642e+03 
 6.59200000e-02  2.01223167e+00 -4.02445789e-04  5.00000682e+03 
 6.79200000e-02  2.06959030e+00 -4.13917464e-04  5.00000723e+03 
 6.99200000e-02  2.12662211e+00 -4.25323774e-04  5.00000765e+03 
 7.19200000e-02  2.18331811e+00 -4.36662918e-04  5.00000809e+03 
 7.39200000e-02  2.23966933e+00 -4.47933104e-04  5.00000854e+03 
 7.59200000e-02  2.29566688e+00 -4.59132552e-04  5.00000901e+03 
 7.79200000e-02  2.35130192e+00 -4.70259496e-04  5.00000949e+03 
 7.99200000e-02  2.40656567e+00 -4.81312178e-04  5.00000997e+03 
 8.19200000e-02  2.46144939e+00 -4.92288851e-04  5.00001046e+03 
 8.39200000e-02  2.51594441e+00 -5.03187783e-04  5.00001097e+03 
 8.59200000e-02  2.57004214e+00 -5.14007253e-04  5.00001147e+03 
 8.79200000e-02  2.62373404e+00 -5.24745552e-04  5.00001200e+03 
 8.99200000e-02  2.67701161e+00 -5.35400982e-04  5.00001255e+03 
 9.19200000e-02  2.72986645e+00 -5.45971863e-04  5.00001310e+03 
 9.39200000e-02  2.78229022e+00 -5.56456527e-04  5.00001366e+03 
 9.59200000e-02  2.83427462e+00 -5.66853316e-04  5.00001423e+03 
 9.79200000e-02  2.88581147e+00 -5.77160589e-04  5.00001481e+03 
 9.99200000e-02  2.93689261e+00 -5.87376717e-04  5.00001539e+03 
 1.01920000e-01  2.98750998e+00 -5.97500089e-04  5.00001600e+03 
 1.03920000e-01  3.03765559e+00 -6.07529104e-04  5.00001661e+03 
 1.05920000e-01  3.08732152e+00 -6.17462179e-04  5.00001724e+03 
 1.07920000e-01  3.13649992e+00 -6.27297746e-04  5.00001787e+03 
 1.09920000e-01  3.18518304e+00 -6.37034252e-04  5.00001852e+03 
 1.11920000e-01  3.23336317e+00 -6.46670160e-04  5.00001917e+03 
 1.13920000e-01  3.28103272e+00 -6.56203947e-04  5.00001983e+03 
 1.15920000e-01  3.32818416e+00 -6.65634108e-04  5.00002050e+03 
 1.17920000e-01  3.37481004e+00 -6.74959155e-04  5.00002117e+03 
 1.19920000e-01  3.42090300e+00 -6.84177613e-04  5.00002186e+03 
 1.21920000e-01  3.46645576e+00 -6.93288027e-04  5.00002257e+03 
 1.23920000e-01  3.51146112e+00 -7.02288958e-04  5.00002329e+03 
 1.25920000e-01  3.55591198e+00 -7.11178987e-04  5.00002401e+03 
 1.27920000e-01  3.59980133e+00 -7.19956709e-04  5.00002474e+03 
 1.29920000e-01  3.64312222e+00 -7.28620737e-04  5.00002547e+03 
 1.31920000e-01  3.68586782e+00 -7.37169705e-04  5.00002622e+03 
 1.33920000e-01  3.72803139e+00 -7.45602261e-04  5.00002697e+03 
 1.35920000e-01  3.76960625e+00 -7.53917076e-04  5.00002771e+03 
 1.37920000e-01  3.81058584e+00 -7.62112835e-04  5.00002847e+03 
 1.39920000e-01  3.85096371e+00 -7.70188241e-04  5.00002925e+03 
 1.41920000e-01  3.89073346e+00 -7.78142021e-04  5.00003004e+03 
 1.43920000e-01  3.92988881e+00 -7.85972922e-04  5.00003083e+03 
 1.45920000e-01  3.96842360e+00 -7.93679704e-04  5.00003163e+03 
 1.47920000e-01  4.00633172e+00 -8.01261151e-04  5.00003244e+03 
 1.49920000e-01  4.04360720e+00 -8.08716065e-04  5.00003326e+03 
 1.51920000e-01  4.08024414e+00 -8.16043270e-04  5.00003409e+03 
 1.53920000e-01  4.11623677e+00 -8.23241609e-04  5.00003492e+03 
 1.55920000e-01  4.15157939e+00 -8.30309944e-04  5.00003576e+03 
 1.57920000e-01  4.18626643e+00 -8.37247161e-04  5.00003662e+03 
 1.59920000e-01  4.22029241e+00 -8.44052164e-04  5.00003747e+03 
 1.61920000e-01  4.25365196e+00 -8.50723877e-04  5.00003832e+03 
 1.63920000e-01  4.28633981e+00 -8.57261249e-04  5.00003919e+03 
 1.65920000e-01  4.31835080e+00 -8.63663246e-04  5.00004006e+03 
 1.67920000e-01  4.34967986e+00 -8.69928856e-04  5.00004094e+03 
 1.69920000e-01  4.38032207e+00 -8.76057089e-04  5.00004183e+03 
 1.71920000e-01  4.41027257e+00 -8.82046981e-04  5.00004273e+03 
 1.73920000e-01  4.43952663e+00 -8.87897583e-04  5.00004364e+03 
 1.75920000e-01  4.46807965e+00 -8.93607974e-04  5.00004454e+03 
 1.77920000e-01  4.49592710e+00 -8.99177253e-04  5.00004544e+03 
 1.79920000e-01  4.52306459e+00 -9.04604535e-04  5.00004636e+03 
 1.81920000e-01  4.54948784e+00 -9.09888967e-04  5.00004729e+03 
 1.83920000e-01  4.57519267e+00 -9.15029715e-04  5.00004822e+03 
 1.84170000e-01  4.57835506e+00 -9.15662165e-04  5.00004833e+03 
 1.84670000e-01  4.58464593e+00 -9.16920285e-04  5.00004856e+03 
 1.85670000e-01  4.59709188e+00 -9.19409365e-04  5.00004903e+03 
 1.85701250e-01  4.59747789e+00 -9.19486565e-04  5.00004904e+03 
 1.85763750e-01  4.59824939e+00 -9.19640857e-04  5.00004907e+03 
 1.85888750e-01  4.59979025e+00 -9.19949016e-04  5.00004913e+03 
 1.85892656e-01  4.59983836e+00 -9.19958637e-04  5.00004913e+03 
 1.85900469e-01  4.59993456e+00 -9.19977877e-04  5.00004913e+03 
 1.85902422e-01  4.59995861e+00 -9.19982687e-04  5.00004914e+03 
 1.85906328e-01  4.60000671e+00 -8.95878850e-04  5.13110291e+03 
 1.85912348e-01  4.60008083e+00 -5.92320646e-04  7.76620045e+03 
 1.85918414e-01  4.60015550e+00 -4.50217267e-04  1.02176347e+04 
 1.85925627e-01  4.60024430e+00 -4.50225957e-04  1.02176347e+04 
 1.85934739e-01  4.60035644e+00 -4.50236933e-04  1.02176347e+04 
 1.85943063e-01  4.60045889e+00 -4.50246959e-04  1.02176347e+04 
 1.85959712e-01  4.60066374e+00 -4.50267008e-04  1.02176347e+04 
 1.85993010e-01  4.60107329e+00 -4.50307091e-04  1.02176347e+04 
 1.86059606e-01  4.60189180e+00 -4.50387198e-04  1.02176347e+04 
 1.86192798e-01  4.60352639e+00 -4.50547176e-04  1.02176347e+04 
 1.86459182e-01  4.60678589e+00 -4.50866184e-04  1.02176347e+04 
 1.86991950e-01  4.61326618e+00 -4.51500410e-04  1.02176347e+04 
 1.88057486e-01  4.62607161e+00 -4.52753677e-04  1.02176347e+04 
 1.90057486e-01  4.64954695e+00 -4.55051209e-04  1.02176347e+04 
 1.92057486e-01  4.67228808e+00 -4.57276883e-04  1.02176347e+04 
 1.94057486e-01  4.69429140e+00 -4.59430349e-04  1.02176347e+04 
 1.96057486e-01  4.71555344e+00 -4.61511264e-04  1.02176347e+04 
 1.98057486e-01  4.73607083e+00 -4.63519302e-04  1.02176347e+04 
 2.00057486e-01  4.75584035e+00 -4.65454145e-04  1.02176347e+04 
 2.02057486e-01  4.77485886e+00 -4.67315487e-04  1.02176347e+04 
 2.04057486e-01  4.79312337e+00 -4.69103035e-04  1.02176347e+04 
 2.06057486e-01  4.81063099e+00 -4.70816505e-04  1.02176347e+04 
 2.08057486e-01  4.82737895e+00 -4.72455629e-04  1.02176347e+04 
 2.10057486e-01  4.84336462e+00 -4.74020146e-04  1.02176347e+04 
 2.12057486e-01  4.85858546e+00 -4.75509810e-04  1.02176347e+04 
 2.14057486e-01  4.87303908e+00 -4.76924385e-04  1.02176347e+04 
 2.16057486e-01  4.88672318e+00 -4.78263649e-04  1.02176347e+04 
 2.18057486e-01  4.89963562e+00 -4.79527389e-04  1.02176347e+04 
 2.20057486e-01  4.91177434e+00 -4.80715406e-04  1.02176347e+04 
 2.22057486e-01  4.92313744e+00 -4.81827513e-04  1.02176347e+04 
 2.24057486e-01  4.93372312e+00 -4.82863533e-04  1.02176347e+04 
 2.26057486e-01  4.94352971e+00 -4.83823304e-04  1.02176347e+04 
 2.28057486e-01  4.95255565e+00 -4.84706674e-04  1.02176347e+04 
 2.30057486e-01  4.96079953e+00 -4.85513502e-04  1.02176347e+04 
 2.32057486e-01  4.96826005e+00 -4.86243663e-04  1.02176347e+04 
 2.34057486e-01  4.97493601e+00 -4.86897040e-04  1.02176347e+04 
 2.36057486e-01  4.98082638e+00 -4.87473530e-04  1.02176347e+04 
 2.38057486e-01  4.98593022e+00 -4.87973042e-04  1.02176347e+04 
 2.40057486e-01  4.99024672e+00 -4.88395498e-04  1.02176347e+04 
 2.42057486e-01  4.99377520e+00 -4.88740831e-04  1.02176347e+04 
 2.44057486e-01  4.99651511e+00 -4.89008986e-04  1.02176347e+04 
 2.46057486e-01  4.99846600e+00 -4.89199920e-04  1.02176347e+04 
 2.48057486e-01  4.99962759e+00 -4.89313604e-04  1.02176347e+04 
 2.50057486e-01  4.99999967e+00 -4.89350020e-04  1.02176347e+04 
 2.52057486e-01  4.99958220e+00 -4.89309162e-04  1.02176347e+04 
 2.54057486e-01  4.99837524e+00 -4.89191037e-04  1.02176347e+04 
 2.56057486e-01  4.99637897e+00 -4.88995662e-04  1.02176347e+04 
 2.58057486e-01  4.99359372e+00 -4.88723069e-04  1.02176347e+04 
 2.60057486e-01  4.99001992e+00 -4.88373302e-04  1.02176347e+04 
 2.62057486e-01  4.98565814e+00 -4.87946414e-04  1.02176347e+04 
 2.64057486e-01  4.98050906e+00 -4.87442474e-04  1.02176347e+04 
 2.66057486e-01  4.97457351e+00 -4.86861561e-04  1.02176347e+04 
 2.68057486e-01  4.96785241e+00 -4.86203768e-04  1.02176347e+04 
 2.70057486e-01  4.96034683e+00 -4.85469197e-04  1.02176347e+04 
 2.72057486e-01  4.95205796e+00 -4.84657964e-04  1.02176347e+04 
 2.74057486e-01  4.94298710e+00 -4.83770199e-04  1.02176347e+04 
 2.76057486e-01  4.93313568e+00 -4.82806041e-04  1.02176347e+04 
 2.78057486e-01  4.92250526e+00 -4.81765642e-04  1.02176347e+04 
 2.80057486e-01  4.91109753e+00 -4.80649166e-04  1.02176347e+04 
 2.82057486e-01  4.89891427e+00 -4.79456791e-04  1.02176347e+04 
 2.84057486e-01  4.88595742e+00 -4.78188704e-04  1.02176347e+04 
 2.86057486e-01  4.87222902e+00 -4.76845105e-04  1.02176347e+04 
 2.88057486e-01  4.85773123e+00 -4.75426207e-04  1.02176347e+04 
 2.90057486e-01  4.84246636e+00 -4.73932233e-04  1.02176347e+04 
 2.92057486e-01  4.82643680e+00 -4.72363421e-04  1.02176347e+04 
 2.94057486e-01  4.80964510e+00 -4.70720016e-04  1.02176347e+04 
 2.96057486e-01  4.79209389e+00 -4.69002279e-04  1.02176347e+04 
 2.98057486e-01  4.77378596e+00 -4.67210482e-04  1.02176347e+04 
 3.00057486e-01  4.75472419e+00 -4.65344906e-04  1.02176347e+04 
 3.02057486e-01  4.73491160e+00 -4.63405848e-04  1.02176347e+04 
 3.04057486e-01  4.71435131e+00 -4.61393612e-04  1.02176347e+04 
 3.06057486e-01  4.69304656e+00 -4.59308516e-04  1.02176347e+04 
 3.08057486e-01  4.67100073e+00 -4.57150891e-04  1.02176347e+04 
 3.10057486e-01  4.64821730e+00 -4.54921076e-04  1.02176347e+04 
 3.12057486e-01  4.62469986e+00 -4.52619423e-04  1.02176347e+04 
 3.14057486e-01  4.60045212e+00 -4.50246297e-04  1.02176347e+04 
 3.16057486e-01  4.57547792e+00 -4.47802072e-04  1.02176347e+04 
 3.18057486e-01  4.54978120e+00 -4.45287134e-04  1.02176347e+04 
 3.20057486e-01  4.52336602e+00 -4.42701879e-04  1.02176347e+04 
 3.22057486e-01  4.49623654e+00 -4.40046717e-04  1.02176347e+04 
 3.24057486e-01  4.46839706e+00 -4.37322067e-04  1.02176347e+04 
 3.26057486e-01  4.43985196e+00 -4.34528358e-04  1.02176347e+04 
 3.28057486e-01  4.41060576e+00 -4.31666032e-04  1.02176347e+04 
 3.30057486e-01  4.38066308e+00 -4.28735541e-04  1.02176347e+04 
 3.32057486e-01  4.35002863e+00 -4.25737348e-04  1.02176347e+04 
 3.34057486e-01  4.31870727e+00 -4.22671926e-04  1.02176347e+04 
 3.36057486e-01  4.28670393e+00 -4.19539759e-04  1.02176347e+04 
 3.38057486e-01  4.25402367e+00 -4.16341342e-04  1.02176347e+04 
 3.40057486e-01  4.22067166e+00 -4.13077179e-04  1.02176347e+04 
 3.42057486e-01  4.18665315e+00 -4.09747787e-04  1.02176347e+04 
 3.44057486e-01  4.15197352e+00 -4.06353692e-04  1.02176347e+04 
 3.46057486e-01  4.11663824e+00 -4.02895428e-04  1.02176347e+04 
 3.48057486e-01  4.08065290e+00 -3.99373542e-04  1.02176347e+04 
 3.50057486e-01  4.04402318e+00 -3.95788591e-04  1.02176347e+04 
 3.52057486e-01  4.00675486e+00 -3.92141140e-04  1.02176347e+04 
 3.54057486e-01  3.96885382e+00 -3.88431765e-04  1.02176347e+04 
 3.56057486e-01  3.93032606e+00 -3.84661053e-04  1.02176347e+04 
 3.58057486e-01  3.89117765e+00 -3.80829598e-04  1.02176347e+04 
 3.60057486e-01  3.85141479e+00 -3.76938005e-04  1.02176347e+04 
 3.62057486e-01  3.81104373e+00 -3.72986890e-04  1.02176347e+04 
 3.64057486e-01  3.77007087e+00 -3.68976876e-04  1.02176347e+04 
 3.66057486e-01  3.72850268e+00 -3.64908596e-04  1.02176347e+04 
 3.68057486e-01  3.68634571e+00 -3.60782693e-04  1.02176347e+04 
 3.70057486e-01  3.64360662e+00 -3.56599818e-04  1.02176347e+04 
 3.72057486e-01  3.60029216e+00 -3.52360632e-04  1.02176347e+04 
 3.74057486e-01  3.55640918e+00 -3.48065804e-04  1.02176347e+04 
 3.76057486e-01  3.51196460e+00 -3.43716012e-04  1.02176347e+04 
 3.78057486e-01  3.46696544e+00 -3.39311944e-04  1.02176347e+04 
 3.80057486e-01  3.42141880e+00 -3.34854294e-04  1.02176347e+04 
 3.82057486e-01  3.37533188e+00 -3.30343767e-04  1.02176347e+04 
 3.84057486e-01  3.32871196e+00 -3.25781075e-04  1.02176347e+04 
 3.86057486e-01  3.28156640e+00 -3.21166938e-04  1.02176347e+04 
 3.88057486e-01  3.23390264e+00 -3.16502085e-04  1.02176347e+04 
 3.90057486e-01  3.18572821e+00 -3.11787253e-04  1.02176347e+04 
 3.92057486e-01  3.13705071e+00 -3.07023186e-04  1.02176347e+04 
 3.94057486e-01  3.08787784e+00 -3.02210637e-04  1.02176347e+04 
 3.96057486e-01  3.03821736e+00 -2.97350364e-04  1.02176347e+04 
 3.98057486e-01  2.98807710e+00 -2.92443137e-04  1.02176347e+04 
 4.00057486e-01  2.93746500e+00 -2.87489730e-04  1.02176347e+04 
 4.02057486e-01  2.88638903e+00 -2.82490925e-04  1.02176347e+04 
 4.04057486e-01  2.83485727e+00 -2.77447511e-04  1.02176347e+04 
 4.06057486e-01  2.78287786e+00 -2.72360285e-04  1.02176347e+04 
 4.08057486e-01  2.73045899e+00 -2.67230050e-04  1.02176347e+04 
 4.10057486e-01  2.67760896e+00 -2.62057617e-04  1.02176347e+04 
 4.12057486e-01  2.62433610e+00 -2.56843801e-04  1.02176347e+04 
 4.14057486e-01  2.57064882e+00 -2.51589427e-04  1.02176347e+04 
 4.16057486e-01  2.51655561e+00 -2.46295324e-04  1.02176347e+04 
 4.18057486e-01  2.46206501e+00 -2.40962328e-04  1.02176347e+04 
 4.20057486e-01  2.40718562e+00 -2.35591282e-04  1.02176347e+04 
 4.22057486e-01  2.35192610e+00 -2.30183032e-04  1.02176347e+04 
 4.24057486e-01  2.29629519e+00 -2.24738435e-04  1.02176347e+04 
 4.26057486e-01  2.24030167e+00 -2.19258348e-04  1.02176347e+04 
 4.28057486e-01  2.18395438e+00 -2.13743638e-04  1.02176347e+04 
 4.30057486e-01  2.12726222e+00 -2.08195175e-04  1.02176347e+04 
 4.32057486e-01  2.07023413e+00 -2.02613836e-04  1.02176347e+04 
 4.34057486e-01  2.01287914e+00 -1.97000502e-04  1.02176347e+04 
 4.36057486e-01  1.95520628e+00 -1.91356059e-04  1.02176347e+04 
 4.38057486e-01  1.89722468e+00 -1.85681399e-04  1.02176347e+04 
 4.40057486e-01  1.83894348e+00 -1.79977418e-04  1.02176347e+04 
 4.42057486e-01  1.78037189e+00 -1.74245016e-04  1.02176347e+04 
 4.44057486e-01  1.72151917e+00 -1.68485099e-04  1.02176347e+04 
 4.46057486e-01  1.66239459e+00 -1.62698576e-04  1.02176347e+04 
 4.48057486e-01  1.60300750e+00 -1.56886361e-04  1.02176347e+04 
 4.50057486e-01  1.54336728e+00 -1.51049372e-04  1.02176347e+04 
 4.52057486e-01  1.48348334e+00 -1.45188530e-04  1.02176347e+04 
 4.54057486e-01  1.42336514e+00 -1.39304762e-04  1.02176347e+04 
 4.56057486e-01  1.36302218e+00 -1.33398995e-04  1.02176347e+04 
 4.58057486e-01  1.30246398e+00 -1.27472164e-04  1.02176347e+04 
 4.60057486e-01  1.24170011e+00 -1.21525203e-04  1.02176347e+04 
 4.62057486e-01  1.18074016e+00 -1.15559052e-04  1.02176347e+04 
 4.64057486e-01  1.11959375e+00 -1.09574652e-04  1.02176347e+04 
 4.66057486e-01  1.05827055e+00 -1.03572950e-04  1.02176347e+04 
 4.68057486e-01  9.96780235e-01 -9.75548921e-05  1.02176347e+04 
 4.70057486e-01  9.35132517e-01 -9.15214292e-05  1.02176347e+04 
 4.72057486e-01  8.73337131e-01 -8.54735141e-05  1.02176347e+04 
 4.74057486e-01  8.11403834e-01 -7.94121018e-05  1.02176347e+04 
 4.76057486e-01  7.49342408e-01 -7.33381493e-05  1.02176347e+04 
 4.78057486e-01  6.87162651e-01 -6.72526159e-05  1.02176347e+04 
 4.80057486e-01  6.24874384e-01 -6.11564625e-05  1.02176347e+04 
 4.82057486e-01  5.62487442e-01 -5.50506518e-05  1.02176347e+04 
 4.84057486e-01  5.00011676e-01 -4.89361480e-05  1.02176347e+04 
 4.86057486e-01  4.37456953e-01 -4.28139166e-05  1.02176347e+04 
 4.88057486e-01  3.74833150e-01 -3.66849244e-05  1.02176347e+04 
 4.90057486e-01  3.12150157e-01 -3.05501392e-05  1.02176347e+04 
 4.92057486e-01  2.49417872e-01 -2.44105297e-05  1.02176347e+04 
 4.94057486e-01  1.86646201e-01 -1.82670656e-05  1.02176347e+04 
 4.96057486e-01  1.23845056e-01 -1.21207169e-05  1.02176347e+04 
 4.98057486e-01  6.10243542e-02 -5.97245419e-06  1.02176347e+04 
 5.00057486e-01 -1.80598367e-03  1.76751640e-07  1.02176347e+04 
 5.02057486e-01 -6.46360364e-02  6.32592956e-06  1.02176347e+04 
 5.04057486e-01 -1.27455882e-01  1.24741085e-05  1.02176346e+04 
 5.06057486e-01 -1.90255602e-01  1.86203178e-05  1.02176346e+04 
 5.08057486e-01 -2.53025277e-01  2.47635867e-05  1.02176346e+04 
 5.10057486e-01 -3.15754997e-01  3.09029453e-05  1.02176345e+04 
 5.12057486e-01 -3.78434856e-01  3.70374241e-05  1.02176344e+04 
 5.14057486e-01 -4.41054955e-01  4.31660543e-05  1.02176343e+04 
 5.16057486e-01 -5.03605407e-01  4.92878684e-05  1.02176342e+04 
 5.18057486e-01 -5.66076333e-01  5.54018994e-05  1.02176341e+04 
 5.20057486e-01 -6.28457870e-01  6.15071821e-05  1.02176340e+04 
 5.22057486e-01 -6.90740166e-01  6.76027523e-05  1.02176339e+04 
 5.24057486e-01 -7.52913386e-01  7.36876475e-05  1.02176337e+04 
 5.26057486e-01 -8.14967712e-01  7.97609068e-05  1.02176336e+04 
 5.28057486e-01 -8.76893345e-01  8.58215712e-05  1.02176334e+04 
 5.30057486e-01 -9.38680507e-01  9.18686838e-05  1.02176332e+04 
 5.32057486e-01 -1.00031944e+00  9.79012896e-05  1.02176330e+04 
 5.34057486e-01 -1.06180041e+00  1.03918436e-04  1.02176328e+04 
 5.36057486e-01 -1.12311371e+00  1.09919173e-04  1.02176326e+04 
 5.38057486e-01 -1.18424966e+00  1.15902552e-04  1.02176324e+04 
 5.40057486e-01 -1.24519860e+00  1.21867630e-04  1.02176321e+04 
 5.42057486e-01 -1.30595091e+00  1.27813464e-04  1.02176318e+04 
 5.44057486e-01 -1.36649699e+00  1.33739115e-04  1.02176316e+04 
