 time            vin             i(v1)           l0             
 2.00000000e-05  6.28318529e-04 -1.25663675e-07  5.00000126e+03 
 4.00000000e-05  1.25663705e-03 -2.51327285e-07  5.00000377e+03 
 8.00000000e-05  2.51327402e-03 -5.02654048e-07  5.00001131e+03 
 1.60000000e-04  5.02654740e-03 -1.00530418e-06  5.00004147e+03 
 3.20000000e-04  1.00530897e-02 -2.01057702e-06  5.00016211e+03 
 6.40000000e-04  2.01061388e-02 -4.02090338e-06  5.00064465e+03 
 1.28000000e-03  4.02119525e-02 -8.03980182e-06  5.00257483e+03 
 2.00000000e-03  6.28301994e-02 -1.25536116e-05  5.00628435e+03 
 2.12800000e-03  6.68510998e-02 -1.33512913e-05  5.00714004e+03 
 2.38400000e-03  7.48927681e-02 -1.49523569e-05  5.00895437e+03 
 2.89600000e-03  9.09755027e-02 -1.81498987e-05  5.01320059e+03 
 3.92000000e-03  1.23137981e-01 -2.45230644e-05  5.02416320e+03 
 5.92000000e-03  1.85939401e-01 -3.67827483e-05  5.05507094e+03 
 7.92000000e-03  2.48711460e-01 -4.87809558e-05  5.09853603e+03 
 9.92000000e-03  3.11444243e-01 -6.04212101e-05  5.15455160e+03 
 1.19200000e-02  3.74127847e-01 -7.16293423e-05  5.22310881e+03 
 1.39200000e-02  4.36752371e-01 -8.23409061e-05  5.30419683e+03 
 1.59200000e-02  4.99307926e-01 -9.25020684e-05  5.39780286e+03 
 1.79200000e-02  5.61784636e-01 -1.02070060e-04  5.50391212e+03 
 1.99200000e-02  6.24172633e-01 -1.11013209e-04  5.62250784e+03 
 2.19200000e-02  6.86462065e-01 -1.19310604e-04  5.75357131e+03 
 2.39200000e-02  7.48643098e-01 -1.26951452e-04  5.89708183e+03 
 2.59200000e-02  8.10705911e-01 -1.33934194e-04  6.05301673e+03 
 2.79200000e-02  8.72640704e-01 -1.40265459e-04  6.22135139e+03 
 2.99200000e-02  9.34437698e-01 -1.45958928e-04  6.40205923e+03 
 3.19200000e-02  9.96087132e-01 -1.51034157e-04  6.59511171e+03 
 3.39200000e-02  1.05757927e+00 -1.55654968e-04  6.80047835e+03 
 3.59200000e-02  1.11890441e+00 -1.59555943e-04  7.01812672e+03 
 3.79200000e-02  1.18005286e+00 -1.62921032e-04  7.24802245e+03 
 3.99200000e-02  1.24101496e+00 -1.65782805e-04  7.49012923e+03 
 4.19200000e-02  1.30178110e+00 -1.68174716e-04  7.74440884e+03 
 4.39200000e-02  1.36234167e+00 -1.70130433e-04  8.01082111e+03 
 4.59200000e-02  1.42268710e+00 -1.71683296e-04  8.28932399e+03 
 4.79200000e-02  1.48280788e+00 -1.72865872e-04  8.57987349e+03 
 4.99200000e-02  1.54269451e+00 -1.73709623e-04  8.88242373e+03 
 5.19200000e-02  1.60233753e+00 -1.74244648e-04  9.19692693e+03 
 5.39200000e-02  1.66172752e+00 -1.74499511e-04  9.52333344e+03 
 5.59200000e-02  1.72085510e+00 -1.74501125e-04  9.86159170e+03 
 5.79200000e-02  1.77971094e+00 -1.77319875e-04  1.00336772e+04 
 5.99200000e-02  1.83828575e+00 -1.83211571e-04  1.00336772e+04 
 6.19200000e-02  1.89657027e+00 -1.89020460e-04  1.00336772e+04 
 6.39200000e-02  1.95455529e+00 -1.94799501e-04  1.00336772e+04 
 6.59200000e-02  2.01223167e+00 -2.00547780e-04  1.00336772e+04 
 6.79200000e-02  2.06959030e+00 -2.06264391e-04  1.00336772e+04 
 6.99200000e-02  2.12662211e+00 -2.11948430e-04  1.00336772e+04 
 7.19200000e-02  2.18331811e+00 -2.17599000e-04  1.00336772e+04 
 7.39200000e-02  2.23966933e+00 -2.23215209e-04  1.00336772e+04 
 7.59200000e-02  2.29566688e+00 -2.28796169e-04  1.00336772e+04 
 7.79200000e-02  2.35130192e+00 -2.34341000e-04  1.00336772e+04 
 7.99200000e-02  2.40656567e+00 -2.39848825e-04  1.00336772e+04 
 8.19200000e-02  2.46144939e+00 -2.45318776e-04  1.00336772e+04 
 8.39200000e-02  2.51594441e+00 -2.50749988e-04  1.00336772e+04 
 8.59200000e-02  2.57004214e+00 -2.56141604e-04  1.00336772e+04 
 8.79200000e-02  2.62373404e+00 -2.61492771e-04  1.00336772e+04 
 8.99200000e-02  2.67701161e+00 -2.66802647e-04  1.00336772e+04 
 9.19200000e-02  2.72986645e+00 -2.72070391e-04  1.00336772e+04 
 9.39200000e-02  2.78229022e+00 -2.77295172e-04  1.00336772e+04 
 9.59200000e-02  2.83427462e+00 -2.82476164e-04  1.00336772e+04 
 9.79200000e-02  2.88581147e+00 -2.87612551e-04  1.00336772e+04 
 9.99200000e-02  2.93689261e+00 -2.92703520e-04  1.00336772e+04 
 1.01920000e-01  2.98750998e+00 -2.97748268e-04  1.00336772e+04 
 1.03920000e-01  3.03765559e+00 -3.02745998e-04  1.00336772e+04 
 1.05920000e-01  3.08732152e+00 -3.07695921e-04  1.00336772e+04 
 1.07920000e-01  3.13649992e+00 -3.12597255e-04  1.00336772e+04 
 1.09920000e-01  3.18518304e+00 -3.17449226e-04  1.00336772e+04 
 1.11920000e-01  3.23336317e+00 -3.22251069e-04  1.00336772e+04 
 1.13920000e-01  3.28103272e+00 -3.27002024e-04  1.00336772e+04 
 1.15920000e-01  3.32818416e+00 -3.31701342e-04  1.00336772e+04 
 1.17920000e-01  3.37481004e+00 -3.36348280e-04  1.00336772e+04 
 1.19920000e-01  3.42090300e+00 -3.40942105e-04  1.00336772e+04 
 1.21920000e-01  3.46645576e+00 -3.45482092e-04  1.00336772e+04 
 1.23920000e-01  3.51146112e+00 -3.49967523e-04  1.00336772e+04 
 1.25920000e-01  3.55591198e+00 -3.54397689e-04  1.00336772e+04 
 1.27920000e-01  3.59980133e+00 -3.58771893e-04  1.00336772e+04 
 1.29920000e-01  3.64312222e+00 -3.63089442e-04  1.00336772e+04 
 1.31920000e-01  3.68586782e+00 -3.67349655e-04  1.00336772e+04 
 1.33920000e-01  3.72803139e+00 -3.71551859e-04  1.00336772e+04 
 1.35920000e-01  3.76960625e+00 -3.75695391e-04  1.00336772e+04 
 1.37920000e-01  3.81058584e+00 -3.79779597e-04  1.00336772e+04 
 1.39920000e-01  3.85096371e+00 -3.83803830e-04  1.00336772e+04 
 1.41920000e-01  3.89073346e+00 -3.87767457e-04  1.00336772e+04 
 1.43920000e-01  3.92988881e+00 -3.91669850e-04  1.00336772e+04 
 1.45920000e-01  3.96842360e+00 -3.95510395e-04  1.00336772e+04 
 1.47920000e-01  4.00633172e+00 -3.99288484e-04  1.00336772e+04 
 1.49920000e-01  4.04360720e+00 -4.03003520e-04  1.00336772e+04 
 1.51920000e-01  4.08024414e+00 -4.06654918e-04  1.00336772e+04 
 1.53920000e-01  4.11623677e+00 -4.10242100e-04  1.00336772e+04 
 1.55920000e-01  4.15157939e+00 -4.13764500e-04  1.00336772e+04 
 1.57920000e-01  4.18626643e+00 -4.17221562e-04  1.00336772e+04 
 1.59920000e-01  4.22029241e+00 -4.20612739e-04  1.00336772e+04 
 1.61920000e-01  4.25365196e+00 -4.23937497e-04  1.00336772e+04 
 1.63920000e-01  4.28633981e+00 -4.27195311e-04  1.00336772e+04 
 1.65920000e-01  4.31835080e+00 -4.30385665e-04  1.00336772e+04 
 1.67920000e-01  4.34967986e+00 -4.33508057e-04  1.00336772e+04 
 1.69920000e-01  4.38032207e+00 -4.36561992e-04  1.00336772e+04 
 1.71920000e-01  4.41027257e+00 -4.39546989e-04  1.00336772e+04 
 1.73920000e-01  4.43952663e+00 -4.42462577e-04  1.00336772e+04 
 1.75920000e-01  4.46807965e+00 -4.45308295e-04  1.00336772e+04 
 1.77920000e-01  4.49592710e+00 -4.48083693e-04  1.00336772e+04 
 1.79920000e-01  4.52306459e+00 -4.50788334e-04  1.00336772e+04 
 1.81920000e-01  4.54948784e+00 -4.53421790e-04  1.00336772e+04 
 1.83920000e-01  4.57519267e+00 -4.55983646e-04  1.00336772e+04 
 1.85920000e-01  4.60017503e+00 -4.58473496e-04  1.00336772e+04 
 1.87920000e-01  4.62443096e+00 -4.60890949e-04  1.00336772e+04 
 1.89920000e-01  4.64795664e+00 -4.63235621e-04  1.00336772e+04 
 1.91920000e-01  4.67074836e+00 -4.65507143e-04  1.00336772e+04 
 1.93920000e-01  4.69280251e+00 -4.67705156e-04  1.00336772e+04 
 1.95920000e-01  4.71411562e+00 -4.69829312e-04  1.00336772e+04 
 1.97920000e-01  4.73468431e+00 -4.71879278e-04  1.00336772e+04 
 1.99920000e-01  4.75450534e+00 -4.73854728e-04  1.00336772e+04 
 2.01920000e-01  4.77357557e+00 -4.75755351e-04  1.00336772e+04 
 2.03920000e-01  4.79189201e+00 -4.77580847e-04  1.00336772e+04 
 2.05920000e-01  4.80945175e+00 -4.79330927e-04  1.00336772e+04 
 2.07920000e-01  4.82625202e+00 -4.81005315e-04  1.00336772e+04 
 2.09920000e-01  4.84229017e+00 -4.82603747e-04  1.00336772e+04 
 2.11920000e-01  4.85756366e+00 -4.84125970e-04  1.00336772e+04 
 2.13920000e-01  4.87207009e+00 -4.85571744e-04  1.00336772e+04 
 2.15920000e-01  4.88580717e+00 -4.86940841e-04  1.00336772e+04 
 2.17920000e-01  4.89877272e+00 -4.88233044e-04  1.00336772e+04 
 2.19920000e-01  4.91096469e+00 -4.89448149e-04  1.00336772e+04 
 2.21920000e-01  4.92238117e+00 -4.90585965e-04  1.00336772e+04 
 2.23920000e-01  4.93302035e+00 -4.91646312e-04  1.00336772e+04 
 2.25920000e-01  4.94288054e+00 -4.92629022e-04  1.00336772e+04 
 2.27920000e-01  4.95196020e+00 -4.93533940e-04  1.00336772e+04 
 2.29920000e-01  4.96025788e+00 -4.94360924e-04  1.00336772e+04 
 2.31920000e-01  4.96777229e+00 -4.95109842e-04  1.00336772e+04 
 2.33920000e-01  4.97450222e+00 -4.95780576e-04  1.00336772e+04 
 2.35920000e-01  4.98044662e+00 -4.96373021e-04  1.00336772e+04 
 2.37920000e-01  4.98560455e+00 -4.96887083e-04  1.00336772e+04 
 2.39920000e-01  4.98997520e+00 -4.97322681e-04  1.00336772e+04 
 2.41920000e-01  4.99355787e+00 -4.97679746e-04  1.00336772e+04 
 2.43920000e-01  4.99635201e+00 -4.97958221e-04  1.00336772e+04 
 2.45920000e-01  4.99835716e+00 -4.98158063e-04  1.00336772e+04 
 2.47920000e-01  4.99957301e+00 -4.98279240e-04  1.00336772e+04 
 2.49920000e-01  4.99999937e+00 -4.98321733e-04  1.00336772e+04 
 2.51920000e-01  4.99963617e+00 -4.98285535e-04  1.00336772e+04 
 2.53920000e-01  4.99848347e+00 -4.98170653e-04  1.00336772e+04 
 2.55920000e-01  4.99654146e+00 -4.97977103e-04  1.00336772e+04 
 2.57920000e-01  4.99381043e+00 -4.97704917e-04  1.00336772e+04 
 2.59920000e-01  4.99029082e+00 -4.97354137e-04  1.00336772e+04 
 2.61920000e-01  4.98598319e+00 -4.96924820e-04  1.00336772e+04 
 2.63920000e-01  4.98088821e+00 -4.96417032e-04  1.00336772e+04 
 2.65920000e-01  4.97500669e+00 -4.95830854e-04  1.00336772e+04 
 2.67920000e-01  4.96833956e+00 -4.95166379e-04  1.00336772e+04 
 2.69920000e-01  4.96088788e+00 -4.94423711e-04  1.00336772e+04 
 2.71920000e-01  4.95265281e+00 -4.93602969e-04  1.00336772e+04 
 2.73920000e-01  4.94363566e+00 -4.92704280e-04  1.00336772e+04 
 2.75920000e-01  4.93383785e+00 -4.91727788e-04  1.00336772e+04 
 2.77920000e-01  4.92326093e+00 -4.90673646e-04  1.00336772e+04 
 2.79920000e-01  4.91190657e+00 -4.89542021e-04  1.00336772e+04 
 2.81920000e-01  4.89977657e+00 -4.88333092e-04  1.00336772e+04 
 2.83920000e-01  4.88687283e+00 -4.87047050e-04  1.00336772e+04 
 2.85920000e-01  4.87319740e+00 -4.85684097e-04  1.00336772e+04 
 2.87920000e-01  4.85875244e+00 -4.84244448e-04  1.00336772e+04 
 2.89920000e-01  4.84354022e+00 -4.82728332e-04  1.00336772e+04 
 2.91920000e-01  4.82756315e+00 -4.81135988e-04  1.00336772e+04 
 2.93920000e-01  4.81082375e+00 -4.79467667e-04  1.00336772e+04 
 2.95920000e-01  4.79332467e+00 -4.77723632e-04  1.00336772e+04 
 2.97920000e-01  4.77506867e+00 -4.75904159e-04  1.00336772e+04 
 2.99920000e-01  4.75605863e+00 -4.74009535e-04  1.00336772e+04 
 3.01920000e-01  4.73629755e+00 -4.72040060e-04  1.00336772e+04 
 3.03920000e-01  4.71578855e+00 -4.69996044e-04  1.00336772e+04 
 3.05920000e-01  4.69453488e+00 -4.67877810e-04  1.00336772e+04 
 3.07920000e-01  4.67253988e+00 -4.65685693e-04  1.00336772e+04 
 3.09920000e-01  4.64980704e+00 -4.63420039e-04  1.00336772e+04 
 3.11920000e-01  4.62633994e+00 -4.61081206e-04  1.00336772e+04 
 3.13920000e-01  4.60214228e+00 -4.58669562e-04  1.00336772e+04 
 3.15920000e-01  4.57721790e+00 -4.56185489e-04  1.00336772e+04 
 3.17920000e-01  4.55157072e+00 -4.53629379e-04  1.00336772e+04 
 3.19920000e-01  4.52520479e+00 -4.51001636e-04  1.00336772e+04 
 3.21920000e-01  4.49812428e+00 -4.48302674e-04  1.00336772e+04 
 3.23920000e-01  4.47033347e+00 -4.45532920e-04  1.00336772e+04 
 3.25920000e-01  4.44183673e+00 -4.42692812e-04  1.00336772e+04 
 3.27920000e-01  4.41263858e+00 -4.39782797e-04  1.00336772e+04 
 3.29920000e-01  4.38274363e+00 -4.36803335e-04  1.00336772e+04 
 3.31920000e-01  4.35215658e+00 -4.33754897e-04  1.00336772e+04 
 3.33920000e-01  4.32088228e+00 -4.30637964e-04  1.00336772e+04 
 3.35920000e-01  4.28892567e+00 -4.27453028e-04  1.00336772e+04 
 3.37920000e-01  4.25629178e+00 -4.24200593e-04  1.00336772e+04 
 3.39920000e-01  4.22298577e+00 -4.20881171e-04  1.00336772e+04 
 3.41920000e-01  4.18901291e+00 -4.17495288e-04  1.00336772e+04 
 3.43920000e-01  4.15437855e+00 -4.14043476e-04  1.00336772e+04 
 3.45920000e-01  4.11908817e+00 -4.10526283e-04  1.00336772e+04 
 3.47920000e-01  4.08314734e+00 -4.06944263e-04  1.00336772e+04 
 3.49920000e-01  4.04656173e+00 -4.03297982e-04  1.00336772e+04 
 3.51920000e-01  4.00933712e+00 -3.99588015e-04  1.00336772e+04 
 3.53920000e-01  3.97147939e+00 -3.95814948e-04  1.00336772e+04 
 3.55920000e-01  3.93299451e+00 -3.91979378e-04  1.00336772e+04 
 3.57920000e-01  3.89388858e+00 -3.88081910e-04  1.00336772e+04 
 3.59920000e-01  3.85416775e+00 -3.84123159e-04  1.00336772e+04 
 3.61920000e-01  3.81383830e+00 -3.80103751e-04  1.00336772e+04 
 3.63920000e-01  3.77290661e+00 -3.76024319e-04  1.00336772e+04 
 3.65920000e-01  3.73137913e+00 -3.71885510e-04  1.00336772e+04 
 3.67920000e-01  3.68926242e+00 -3.67687975e-04  1.00336772e+04 
 3.69920000e-01  3.64656313e+00 -3.63432378e-04  1.00336772e+04 
 3.71920000e-01  3.60328801e+00 -3.59119391e-04  1.00336772e+04 
 3.73920000e-01  3.55944389e+00 -3.54749694e-04  1.00336772e+04 
 3.75920000e-01  3.51503769e+00 -3.50323979e-04  1.00336772e+04 
 3.77920000e-01  3.47007642e+00 -3.45842943e-04  1.00336772e+04 
 3.79920000e-01  3.42456720e+00 -3.41307295e-04  1.00336772e+04 
 3.81920000e-01  3.37851719e+00 -3.36717751e-04  1.00336772e+04 
 3.83920000e-01  3.33193367e+00 -3.32075034e-04  1.00336772e+04 
 3.85920000e-01  3.28482400e+00 -3.27379880e-04  1.00336772e+04 
 3.87920000e-01  3.23719563e+00 -3.22633028e-04  1.00336772e+04 
 3.89920000e-01  3.18905606e+00 -3.17835229e-04  1.00336772e+04 
 3.91920000e-01  3.14041290e+00 -3.12987239e-04  1.00336772e+04 
 3.93920000e-01  3.09127383e+00 -3.08089826e-04  1.00336772e+04 
 3.95920000e-01  3.04164662e+00 -3.03143761e-04  1.00336772e+04 
 3.97920000e-01  2.99153910e+00 -2.98149827e-04  1.00336772e+04 
 3.99920000e-01  2.94095917e+00 -2.93108811e-04  1.00336772e+04 
 4.01920000e-01  2.88991484e+00 -2.88021510e-04  1.00336772e+04 
 4.03920000e-01  2.83841415e+00 -2.82888728e-04  1.00336772e+04 
 4.05920000e-01  2.78646525e+00 -2.77711273e-04  1.00336772e+04 
 4.07920000e-01  2.73407633e+00 -2.72489965e-04  1.00336772e+04 
 4.09920000e-01  2.68125566e+00 -2.67225628e-04  1.00336772e+04 
 4.11920000e-01  2.62801160e+00 -2.61919092e-04  1.00336772e+04 
 4.13920000e-01  2.57435254e+00 -2.56571197e-04  1.00336772e+04 
 4.15920000e-01  2.52028697e+00 -2.51182786e-04  1.00336772e+04 
 4.17920000e-01  2.46582341e+00 -2.45754710e-04  1.00336772e+04 
 4.19920000e-01  2.41097047e+00 -2.40287827e-04  1.00336772e+04 
 4.21920000e-01  2.35573680e+00 -2.34782999e-04  1.00336772e+04 
 4.23920000e-01  2.30013114e+00 -2.29241097e-04  1.00336772e+04 
 4.25920000e-01  2.24416227e+00 -2.23662994e-04  1.00336772e+04 
 4.27920000e-01  2.18783901e+00 -2.18049573e-04  1.00336772e+04 
 4.29920000e-01  2.13117027e+00 -2.12401719e-04  1.00336772e+04 
 4.31920000e-01  2.07416499e+00 -2.06720325e-04  1.00336772e+04 
 4.33920000e-01  2.01683218e+00 -2.01006287e-04  1.00336772e+04 
 4.35920000e-01  1.95918088e+00 -1.95260507e-04  1.00336772e+04 
 4.37920000e-01  1.90122021e+00 -1.89483894e-04  1.00336772e+04 
 4.39920000e-01  1.84295931e+00 -1.83677359e-04  1.00336772e+04 
 4.41920000e-01  1.78440739e+00 -1.77841819e-04  1.00336772e+04 
 4.43920000e-01  1.72557369e+00 -1.71978196e-04  1.00336772e+04 
 4.45920000e-01  1.66646751e+00 -1.66087416e-04  1.00336772e+04 
 4.47920000e-01  1.60709816e+00 -1.60170409e-04  1.00336772e+04 
 4.49920000e-01  1.54747504e+00 -1.54228109e-04  1.00336772e+04 
 4.51920000e-01  1.48760756e+00 -1.48261454e-04  1.00336772e+04 
 4.53920000e-01  1.42750516e+00 -1.42271387e-04  1.00336772e+04 
 4.55920000e-01  1.36717734e+00 -1.36258854e-04  1.00336772e+04 
 4.57920000e-01  1.30663364e+00 -1.30224804e-04  1.00336772e+04 
 4.59920000e-01  1.24588359e+00 -1.24170190e-04  1.00336772e+04 
 4.61920000e-01  1.18493681e+00 -1.18095968e-04  1.00336772e+04 
 4.63920000e-01  1.12380292e+00 -1.12003098e-04  1.00336772e+04 
 4.65920000e-01  1.06249156e+00 -1.05892540e-04  1.00336772e+04 
 4.67920000e-01  1.00101242e+00 -9.97652615e-05  1.00336772e+04 
 4.69920000e-01  9.39375212e-01 -9.36222285e-05  1.00336772e+04 
 4.71920000e-01  8.77589664e-01 -8.74644116e-05  1.00336772e+04 
 4.73920000e-01  8.15665535e-01 -8.12927829e-05  1.00336772e+04 
 4.75920000e-01  7.53612603e-01 -7.51083172e-05  1.00336772e+04 
 4.77920000e-01  6.91440667e-01 -6.89119911e-05  1.00336772e+04 
 4.79920000e-01  6.29159545e-01 -6.27047829e-05  1.00336772e+04 
 4.81920000e-01  5.66779071e-01 -5.64876729e-05  1.00336772e+04 
 4.83920000e-01  5.04309095e-01 -5.02616429e-05  1.00336772e+04 
 4.85920000e-01  4.41759484e-01 -4.40276759e-05  1.00336772e+04 
 4.87920000e-01  3.79140114e-01 -3.77867565e-05  1.00336772e+04 
 4.89920000e-01  3.16460873e-01 -3.15398701e-05  1.00336772e+04 
 4.91920000e-01  2.53731659e-01 -2.52880032e-05  1.00336772e+04 
 4.93920000e-01  1.90962378e-01 -1.90321430e-05  1.00336772e+04 
 4.95920000e-01  1.28162942e-01 -1.27732775e-05  1.00336772e+04 
 4.97920000e-01  6.53432671e-02 -6.51239484e-06  1.00336772e+04 
 4.99920000e-01  2.51327402e-03 -2.50483845e-07  1.00336772e+04 
 5.01920000e-01 -6.03171159e-02  6.01146671e-06  1.00336772e+04 
 5.03920000e-01 -1.23137981e-01  1.22798455e-05  1.00213634e+04 
 5.05920000e-01 -1.85939401e-01  1.86117039e-05  9.99045567e+03 
 5.07920000e-01 -2.48711460e-01  2.50036893e-05  9.94699059e+03 
 5.09920000e-01 -3.11444243e-01  3.14877194e-05  9.89097502e+03 
 5.11920000e-01 -3.74127847e-01  3.80891810e-05  9.82241781e+03 
 5.13920000e-01 -4.36752371e-01  4.48349850e-05  9.74132979e+03 
 5.15920000e-01 -4.99307926e-01  5.17539622e-05  9.64772376e+03 
 5.17920000e-01 -5.61784636e-01  5.88773148e-05  9.54161450e+03 
 5.19920000e-01 -6.24172633e-01  6.62391377e-05  9.42301877e+03 
 5.21920000e-01 -6.86462065e-01  7.38770312e-05  9.29195530e+03 
 5.23920000e-01 -7.48643098e-01  8.18328276e-05  9.14844479e+03 
 5.25920000e-01 -8.10705911e-01  9.01534642e-05  8.99250989e+03 
 5.27920000e-01 -8.72640704e-01  9.88920426e-05  8.82417523e+03 
 5.29920000e-01 -9.34437698e-01  1.08109126e-04  8.64346739e+03 
 5.31920000e-01 -9.96087132e-01  1.17874347e-04  8.45041490e+03 
 5.33920000e-01 -1.05757927e+00  1.28268416e-04  8.24504826e+03 
 5.35920000e-01 -1.11890441e+00  1.39385658e-04  8.02739989e+03 
 5.37920000e-01 -1.18005286e+00  1.51337254e-04  7.79750417e+03 
 5.39920000e-01 -1.24101496e+00  1.64255420e-04  7.55539738e+03 
 5.41920000e-01 -1.30178110e+00  1.78298878e-04  7.30111778e+03 
 5.43920000e-01 -1.36234167e+00  1.93660086e-04  7.03470550e+03 
 5.45920000e-01 -1.42268710e+00  2.10574962e-04  6.75620263e+03 
 5.47920000e-01 -1.48280788e+00  2.29336134e-04  6.46565313e+03 
 5.49920000e-01 -1.54269451e+00  2.50311336e-04  6.16310289e+03 
 5.51920000e-01 -1.60233753e+00  2.73969433e-04  5.84859968e+03 
 5.53920000e-01 -1.66172752e+00  3.00918036e-04  5.52219318e+03 
 5.55920000e-01 -1.72085510e+00  3.31959243e-04  5.18393492e+03 
 5.57920000e-01 -1.77971094e+00  3.68174546e-04  4.83387831e+03 
 5.59920000e-01 -1.83828575e+00  4.11058459e-04  4.47207864e+03 
 5.61920000e-01 -1.89657027e+00  4.62736909e-04  4.09859304e+03 
 5.63920000e-01 -1.95455529e+00  5.26340533e-04  3.71348049e+03 
 5.65920000e-01 -2.01223167e+00  6.06678302e-04  3.31680179e+03 
 5.67920000e-01 -2.06959030e+00  7.11536947e-04  2.90861959e+03 
 5.69920000e-01 -2.12662211e+00  8.54408809e-04  2.48899835e+03 
 5.71920000e-01 -2.18331811e+00  1.06089092e-03  2.05800433e+03 
 5.73920000e-01 -2.23966933e+00  1.38618654e-03  1.61570559e+03 
 5.75920000e-01 -2.29566688e+00  1.97532461e-03  1.16217196e+03 
 5.77920000e-01 -2.35130192e+00  2.52121877e-03  9.32605277e+02 
 5.79920000e-01 -2.40656567e+00  2.58047615e-03  9.32605277e+02 
 5.81920000e-01 -2.46144939e+00  2.63932604e-03  9.32605277e+02 
 5.83920000e-01 -2.51594441e+00  2.69775915e-03  9.32605277e+02 
