 time            vin             i(v1)           l0             
 2.00000000e-05  6.28318529e-04 -1.25660548e-07  5.00012566e+03 
 4.00000000e-05  1.25663705e-03 -2.51314778e-07  5.00037699e+03 
 8.00000000e-05  2.51327402e-03 -5.02579016e-07  5.00113097e+03 
 1.60000000e-04  5.02654740e-03 -1.00477908e-06  5.00414690e+03 
 3.20000000e-04  1.00530897e-02 -2.00412035e-06  5.01621061e+03 
 6.40000000e-04  2.01061388e-02 -3.97004173e-06  5.06446538e+03 
 1.28000000e-03  4.02119525e-02 -7.64851748e-06  5.25748327e+03 
 2.00000000e-03  6.28301994e-02 -1.11629964e-05  5.62843502e+03 
 2.12800000e-03  6.68510998e-02 -1.17076752e-05  5.71400442e+03 
 2.38400000e-03  7.48927681e-02 -1.27035153e-05  5.89543658e+03 
 2.89600000e-03  9.09755027e-02 -1.43947229e-05  6.32005935e+03 
 3.92000000e-03  1.23137981e-01 -1.66036492e-05  7.41632039e+03 
 4.17000000e-03  1.30989425e-01 -1.69154070e-05  7.74379395e+03 
 4.67000000e-03  1.46691325e-01 -1.73846171e-05  8.43799583e+03 
 4.79500000e-03  1.50616580e-01 -1.74602280e-05  8.62626656e+03 
 5.04500000e-03  1.58466808e-01 -1.75882551e-05  9.01262079e+03 
 5.54500000e-03  1.74166073e-01 -1.77023490e-05  9.84420300e+03 
 6.54500000e-03  2.05559290e-01 -1.91841952e-05  1.07150334e+04 
 8.06114464e-03  2.53140062e-01 -2.36247575e-05  1.07150334e+04 
 1.00611446e-02  3.15869699e-01 -2.94791152e-05  1.07150334e+04 
 1.20611446e-02  3.78549458e-01 -3.53288178e-05  1.07150334e+04 
 1.40611446e-02  4.41169439e-01 -4.11729417e-05  1.07150334e+04 
 1.60611446e-02  5.03719754e-01 -4.70105638e-05  1.07150334e+04 
 1.80611446e-02  5.66190526e-01 -5.28407624e-05  1.07150334e+04 
 2.00611446e-02  6.28571890e-01 -5.86626169e-05  1.07150334e+04 
 2.20611446e-02  6.90853995e-01 -6.44752078e-05  1.07150334e+04 
 2.40611446e-02  7.53027006e-01 -7.02776174e-05  1.07150334e+04 
 2.60611446e-02  8.15081106e-01 -7.60689293e-05  1.07150334e+04 
 2.80611446e-02  8.77006495e-01 -8.18482290e-05  1.07150334e+04 
 3.00611446e-02  9.38793394e-01 -8.76146040e-05  1.07150334e+04 
 3.20611446e-02  1.00043205e+00 -9.33671436e-05  1.07150334e+04 
 3.40611446e-02  1.06191272e+00 -9.91049394e-05  1.07150334e+04 
 3.60611446e-02  1.12322571e+00 -1.04827085e-04  1.07150334e+04 
 3.80611446e-02  1.18436132e+00 -1.10532678e-04  1.07150334e+04 
 4.00611446e-02  1.24530991e+00 -1.16220816e-04  1.07150334e+04 
 4.20611446e-02  1.30606185e+00 -1.21890602e-04  1.07150334e+04 
 4.40611446e-02  1.36660755e+00 -1.27541140e-04  1.07150334e+04 
 4.60611446e-02  1.42693745e+00 -1.33171537e-04  1.07150334e+04 
 4.80611446e-02  1.48704201e+00 -1.38780905e-04  1.07150334e+04 
 5.00611446e-02  1.54691176e+00 -1.44368358e-04  1.07150334e+04 
 5.20611446e-02  1.60653723e+00 -1.49933014e-04  1.07150334e+04 
 5.40611446e-02  1.66590900e+00 -1.55473993e-04  1.07150334e+04 
 5.60611446e-02  1.72501772e+00 -1.60990421e-04  1.07150334e+04 
 5.80611446e-02  1.78385403e+00 -1.66481427e-04  1.07150334e+04 
 6.00611446e-02  1.84240865e+00 -1.71946144e-04  1.07150334e+04 
 6.20611446e-02  1.90067233e+00 -1.77383708e-04  1.07150334e+04 
 6.40611446e-02  1.95863588e+00 -1.82793262e-04  1.07150334e+04 
 6.60611446e-02  2.01629013e+00 -1.88173950e-04  1.07150334e+04 
 6.80611446e-02  2.07362599e+00 -1.93524923e-04  1.07150334e+04 
 7.00611446e-02  2.13063440e+00 -1.98845337e-04  1.07150334e+04 
 7.20611446e-02  2.18730635e+00 -2.04134351e-04  1.07150334e+04 
 7.40611446e-02  2.24363291e+00 -2.09391129e-04  1.07150334e+04 
 7.60611446e-02  2.29960517e+00 -2.14614842e-04  1.07150334e+04 
 7.80611446e-02  2.35521429e+00 -2.19804665e-04  1.07150334e+04 
 8.00611446e-02  2.41045150e+00 -2.24959778e-04  1.07150334e+04 
 8.20611446e-02  2.46530808e+00 -2.30079368e-04  1.07150334e+04 
 8.40611446e-02  2.51977535e+00 -2.35162625e-04  1.07150334e+04 
 8.60611446e-02  2.57384472e+00 -2.40208748e-04  1.07150334e+04 
 8.80611446e-02  2.62750764e+00 -2.45216938e-04  1.07150334e+04 
 9.00611446e-02  2.68075566e+00 -2.50186406e-04  1.07150334e+04 
 9.20611446e-02  2.73358035e+00 -2.55116367e-04  1.07150334e+04 
 9.40611446e-02  2.78597338e+00 -2.60006042e-04  1.07150334e+04 
 9.60611446e-02  2.83792647e+00 -2.64854659e-04  1.07150334e+04 
 9.80611446e-02  2.88943142e+00 -2.69661452e-04  1.07150334e+04 
 1.00061145e-01  2.94048010e+00 -2.74425663e-04  1.07150334e+04 
 1.02061145e-01  2.99106444e+00 -2.79146538e-04  1.07150334e+04 
 1.04061145e-01  3.04117645e+00 -2.83823333e-04  1.07150334e+04 
 1.06061145e-01  3.09080823e+00 -2.88455310e-04  1.07150334e+04 
 1.08061145e-01  3.13995194e+00 -2.93041735e-04  1.07150334e+04 
 1.10061145e-01  3.18859980e+00 -2.97581886e-04  1.07150334e+04 
 1.12061145e-01  3.23674416e+00 -3.02075046e-04  1.07150334e+04 
 1.14061145e-01  3.28437739e+00 -3.06520504e-04  1.07150334e+04 
 1.16061145e-01  3.33149198e+00 -3.10917559e-04  1.07150334e+04 
 1.18061145e-01  3.37808049e+00 -3.15265517e-04  1.07150334e+04 
 1.20061145e-01  3.42413556e+00 -3.19563690e-04  1.07150334e+04 
 1.22061145e-01  3.46964993e+00 -3.23811401e-04  1.07150334e+04 
 1.24061145e-01  3.51461639e+00 -3.28007978e-04  1.07150334e+04 
 1.26061145e-01  3.55902785e+00 -3.32152759e-04  1.07150334e+04 
 1.28061145e-01  3.60287731e+00 -3.36245089e-04  1.07150334e+04 
 1.30061145e-01  3.64615783e+00 -3.40284322e-04  1.07150334e+04 
 1.32061145e-01  3.68886257e+00 -3.44269821e-04  1.07150334e+04 
 1.34061145e-01  3.73098480e+00 -3.48200955e-04  1.07150334e+04 
 1.36061145e-01  3.77251787e+00 -3.52077104e-04  1.07150334e+04 
 1.38061145e-01  3.81345521e+00 -3.55897656e-04  1.07150334e+04 
 1.40061145e-01  3.85379037e+00 -3.59662008e-04  1.07150334e+04 
 1.42061145e-01  3.89351696e+00 -3.63369564e-04  1.07150334e+04 
 1.44061145e-01  3.93262873e+00 -3.67019741e-04  1.07150334e+04 
 1.46061145e-01  3.97111948e+00 -3.70611961e-04  1.07150334e+04 
 1.48061145e-01  4.00898315e+00 -3.74145657e-04  1.07150334e+04 
 1.50061145e-01  4.04621376e+00 -3.77620271e-04  1.07150334e+04 
 1.52061145e-01  4.08280542e+00 -3.81035255e-04  1.07150334e+04 
 1.54061145e-01  4.11875236e+00 -3.84390068e-04  1.07150334e+04 
 1.56061145e-01  4.15404890e+00 -3.87684182e-04  1.07150334e+04 
 1.58061145e-01  4.18868947e+00 -3.90917076e-04  1.07150334e+04 
 1.60061145e-01  4.22266859e+00 -3.94088240e-04  1.07150334e+04 
 1.62061145e-01  4.25598091e+00 -3.97197173e-04  1.07150334e+04 
 1.64061145e-01  4.28862116e+00 -4.00243383e-04  1.07150334e+04 
 1.66061145e-01  4.32058418e+00 -4.03226391e-04  1.07150334e+04 
 1.68061145e-01  4.35186494e+00 -4.06145725e-04  1.07150334e+04 
 1.70061145e-01  4.38245848e+00 -4.09000923e-04  1.07150334e+04 
 1.72061145e-01  4.41235999e+00 -4.11791535e-04  1.07150334e+04 
 1.74061145e-01  4.44156473e+00 -4.14517121e-04  1.07150334e+04 
 1.76061145e-01  4.47006810e+00 -4.17177250e-04  1.07150334e+04 
 1.78061145e-01  4.49786559e+00 -4.19771501e-04  1.07150334e+04 
 1.80061145e-01  4.52495281e+00 -4.22299466e-04  1.07150334e+04 
 1.82061145e-01  4.55132550e+00 -4.24760745e-04  1.07150334e+04 
 1.84061145e-01  4.57697947e+00 -4.27154949e-04  1.07150334e+04 
 1.86061145e-01  4.60191069e+00 -4.29481700e-04  1.07150334e+04 
 1.88061145e-01  4.62611522e+00 -4.31740631e-04  1.07150334e+04 
 1.90061145e-01  4.64958922e+00 -4.33931386e-04  1.07150334e+04 
 1.92061145e-01  4.67232900e+00 -4.36053617e-04  1.07150334e+04 
 1.94061145e-01  4.69433097e+00 -4.38106991e-04  1.07150334e+04 
 1.96061145e-01  4.71559165e+00 -4.40091182e-04  1.07150334e+04 
 1.98061145e-01  4.73610768e+00 -4.42005878e-04  1.07150334e+04 
 2.00061145e-01  4.75587583e+00 -4.43850777e-04  1.07150334e+04 
 2.02061145e-01  4.77489296e+00 -4.45625586e-04  1.07150334e+04 
 2.04061145e-01  4.79315609e+00 -4.47330025e-04  1.07150334e+04 
 2.06061145e-01  4.81066232e+00 -4.48963826e-04  1.07150334e+04 
 2.08061145e-01  4.82740889e+00 -4.50526730e-04  1.07150334e+04 
 2.10061145e-01  4.84339316e+00 -4.52018491e-04  1.07150334e+04 
 2.12061145e-01  4.85861260e+00 -4.53438873e-04  1.07150334e+04 
 2.14061145e-01  4.87306481e+00 -4.54787652e-04  1.07150334e+04 
 2.16061145e-01  4.88674750e+00 -4.56064614e-04  1.07150334e+04 
 2.18061145e-01  4.89965853e+00 -4.57269559e-04  1.07150334e+04 
 2.20061145e-01  4.91179583e+00 -4.58402295e-04  1.07150334e+04 
 2.22061145e-01  4.92315751e+00 -4.59462645e-04  1.07150334e+04 
 2.24061145e-01  4.93374177e+00 -4.60450440e-04  1.07150334e+04 
 2.26061145e-01  4.94354693e+00 -4.61365524e-04  1.07150334e+04 
 2.28061145e-01  4.95257145e+00 -4.62207754e-04  1.07150334e+04 
 2.30061145e-01  4.96081390e+00 -4.62976995e-04  1.07150334e+04 
 2.32061145e-01  4.96827297e+00 -4.63673127e-04  1.07150334e+04 
 2.34061145e-01  4.97494750e+00 -4.64296040e-04  1.07150334e+04 
 2.36061145e-01  4.98083643e+00 -4.64845635e-04  1.07150334e+04 
 2.38061145e-01  4.98593883e+00 -4.65321826e-04  1.07150334e+04 
 2.40061145e-01  4.99025389e+00 -4.65724536e-04  1.07150334e+04 
 2.42061145e-01  4.99378093e+00 -4.66053704e-04  1.07150334e+04 
 2.44061145e-01  4.99651939e+00 -4.66309276e-04  1.07150334e+04 
 2.46061145e-01  4.99846885e+00 -4.66491213e-04  1.07150334e+04 
 2.48061145e-01  4.99962899e+00 -4.66599485e-04  1.07150334e+04 
 2.50061145e-01  4.99999963e+00 -4.66634075e-04  1.07150334e+04 
 2.52061145e-01  4.99958071e+00 -4.66594979e-04  1.07150334e+04 
 2.54061145e-01  4.99837230e+00 -4.66482202e-04  1.07150334e+04 
 2.56061145e-01  4.99637459e+00 -4.66295762e-04  1.07150334e+04 
 2.58061145e-01  4.99358790e+00 -4.66035689e-04  1.07150334e+04 
 2.60061145e-01  4.99001266e+00 -4.65702023e-04  1.07150334e+04 
 2.62061145e-01  4.98564944e+00 -4.65294817e-04  1.07150334e+04 
 2.64061145e-01  4.98049892e+00 -4.64814136e-04  1.07150334e+04 
 2.66061145e-01  4.97456193e+00 -4.64260056e-04  1.07150334e+04 
 2.68061145e-01  4.96783940e+00 -4.63632663e-04  1.07150334e+04 
 2.70061145e-01  4.96033239e+00 -4.62932058e-04  1.07150334e+04 
 2.72061145e-01  4.95204208e+00 -4.62158350e-04  1.07150334e+04 
 2.74061145e-01  4.94296979e+00 -4.61311661e-04  1.07150334e+04 
 2.76061145e-01  4.93311694e+00 -4.60392127e-04  1.07150334e+04 
 2.78061145e-01  4.92248510e+00 -4.59399891e-04  1.07150334e+04 
 2.80061145e-01  4.91107595e+00 -4.58335111e-04  1.07150334e+04 
 2.82061145e-01  4.89889127e+00 -4.57197954e-04  1.07150334e+04 
 2.84061145e-01  4.88593301e+00 -4.55988600e-04  1.07150334e+04 
 2.86061145e-01  4.87220320e+00 -4.54707241e-04  1.07150334e+04 
 2.88061145e-01  4.85770401e+00 -4.53354078e-04  1.07150334e+04 
 2.90061145e-01  4.84243774e+00 -4.51929325e-04  1.07150334e+04 
 2.92061145e-01  4.82640678e+00 -4.50433207e-04  1.07150334e+04 
 2.94061145e-01  4.80961369e+00 -4.48865960e-04  1.07150334e+04 
 2.96061145e-01  4.79206109e+00 -4.47227833e-04  1.07150334e+04 
 2.98061145e-01  4.77375178e+00 -4.45519083e-04  1.07150334e+04 
 3.00061145e-01  4.75468864e+00 -4.43739980e-04  1.07150334e+04 
 3.02061145e-01  4.73487467e+00 -4.41890805e-04  1.07150334e+04 
 3.04061145e-01  4.71431301e+00 -4.39971851e-04  1.07150334e+04 
 3.06061145e-01  4.69300691e+00 -4.37983421e-04  1.07150334e+04 
 3.08061145e-01  4.67095973e+00 -4.35925827e-04  1.07150334e+04 
 3.10061145e-01  4.64817495e+00 -4.33799396e-04  1.07150334e+04 
 3.12061145e-01  4.62465617e+00 -4.31604463e-04  1.07150334e+04 
 3.14061145e-01  4.60040710e+00 -4.29341375e-04  1.07150334e+04 
 3.16061145e-01  4.57543158e+00 -4.27010488e-04  1.07150334e+04 
 3.18061145e-01  4.54973354e+00 -4.24612172e-04  1.07150334e+04 
 3.20061145e-01  4.52331704e+00 -4.22146804e-04  1.07150334e+04 
 3.22061145e-01  4.49618626e+00 -4.19614775e-04  1.07150334e+04 
 3.24061145e-01  4.46834548e+00 -4.17016484e-04  1.07150334e+04 
 3.26061145e-01  4.43979910e+00 -4.14352340e-04  1.07150334e+04 
 3.28061145e-01  4.41055162e+00 -4.11622766e-04  1.07150334e+04 
 3.30061145e-01  4.38060767e+00 -4.08828192e-04  1.07150334e+04 
 3.32061145e-01  4.34997196e+00 -4.05969059e-04  1.07150334e+04 
 3.34061145e-01  4.31864935e+00 -4.03045819e-04  1.07150334e+04 
 3.36061145e-01  4.28664477e+00 -4.00058933e-04  1.07150334e+04 
 3.38061145e-01  4.25396328e+00 -3.97008874e-04  1.07150334e+04 
 3.40061145e-01  4.22061004e+00 -3.93896122e-04  1.07150334e+04 
 3.42061145e-01  4.18659031e+00 -3.90721169e-04  1.07150334e+04 
 3.44061145e-01  4.15190948e+00 -3.87484517e-04  1.07150334e+04 
 3.46061145e-01  4.11657301e+00 -3.84186676e-04  1.07150334e+04 
 3.48061145e-01  4.08058648e+00 -3.80828168e-04  1.07150334e+04 
 3.50061145e-01  4.04395559e+00 -3.77409523e-04  1.07150334e+04 
 3.52061145e-01  4.00668610e+00 -3.73931281e-04  1.07150334e+04 
 3.54061145e-01  3.96878392e+00 -3.70393990e-04  1.07150334e+04 
 3.56061145e-01  3.93025501e+00 -3.66798210e-04  1.07150334e+04 
 3.58061145e-01  3.89110548e+00 -3.63144508e-04  1.07150334e+04 
 3.60061145e-01  3.85134149e+00 -3.59433462e-04  1.07150334e+04 
 3.62061145e-01  3.81096933e+00 -3.55665657e-04  1.07150334e+04 
 3.64061145e-01  3.76999538e+00 -3.51841688e-04  1.07150334e+04 
 3.66061145e-01  3.72842610e+00 -3.47962159e-04  1.07150334e+04 
 3.68061145e-01  3.68626806e+00 -3.44027683e-04  1.07150334e+04 
 3.70061145e-01  3.64352791e+00 -3.40038881e-04  1.07150334e+04 
 3.72061145e-01  3.60021241e+00 -3.35996383e-04  1.07150334e+04 
 3.74061145e-01  3.55632839e+00 -3.31900827e-04  1.07150334e+04 
 3.76061145e-01  3.51188279e+00 -3.27752860e-04  1.07150334e+04 
 3.78061145e-01  3.46688262e+00 -3.23553137e-04  1.07150334e+04 
 3.80061145e-01  3.42133499e+00 -3.19302322e-04  1.07150334e+04 
 3.82061145e-01  3.37524709e+00 -3.15001084e-04  1.07150334e+04 
 3.84061145e-01  3.32862620e+00 -3.10650105e-04  1.07150334e+04 
 3.86061145e-01  3.28147968e+00 -3.06250070e-04  1.07150334e+04 
 3.88061145e-01  3.23381498e+00 -3.01801675e-04  1.07150334e+04 
 3.90061145e-01  3.18563962e+00 -2.97305622e-04  1.07150334e+04 
 3.92061145e-01  3.13696121e+00 -2.92762621e-04  1.07150334e+04 
 3.94061145e-01  3.08778744e+00 -2.88173389e-04  1.07150334e+04 
 3.96061145e-01  3.03812608e+00 -2.83538651e-04  1.07150334e+04 
 3.98061145e-01  2.98798495e+00 -2.78859140e-04  1.07150334e+04 
 4.00061145e-01  2.93737199e+00 -2.74135593e-04  1.07150334e+04 
 4.02061145e-01  2.88629519e+00 -2.69368757e-04  1.07150334e+04 
 4.04061145e-01  2.83476260e+00 -2.64559385e-04  1.07150334e+04 
 4.06061145e-01  2.78278237e+00 -2.59708235e-04  1.07150334e+04 
 4.08061145e-01  2.73036271e+00 -2.54816075e-04  1.07150334e+04 
 4.10061145e-01  2.67751189e+00 -2.49883676e-04  1.07150334e+04 
 4.12061145e-01  2.62423827e+00 -2.44911818e-04  1.07150334e+04 
 4.14061145e-01  2.57055024e+00 -2.39901285e-04  1.07150334e+04 
 4.16061145e-01  2.51645630e+00 -2.34852869e-04  1.07150334e+04 
 4.18061145e-01  2.46196498e+00 -2.29767367e-04  1.07150334e+04 
 4.20061145e-01  2.40708488e+00 -2.24645582e-04  1.07150334e+04 
 4.22061145e-01  2.35182468e+00 -2.19488323e-04  1.07150334e+04 
 4.24061145e-01  2.29619310e+00 -2.14296405e-04  1.07150334e+04 
 4.26061145e-01  2.24019892e+00 -2.09070646e-04  1.07150334e+04 
 4.28061145e-01  2.18385099e+00 -2.03811873e-04  1.07150334e+04 
 4.30061145e-01  2.12715820e+00 -1.98520915e-04  1.07150334e+04 
 4.32061145e-01  2.07012952e+00 -1.93198609e-04  1.07150334e+04 
 4.34061145e-01  2.01277393e+00 -1.87845794e-04  1.07150334e+04 
 4.36061145e-01  1.95510050e+00 -1.82463317e-04  1.07150334e+04 
 4.38061145e-01  1.89711834e+00 -1.77052026e-04  1.07150334e+04 
 4.40061145e-01  1.83883661e+00 -1.71612777e-04  1.07150334e+04 
 4.42061145e-01  1.78026450e+00 -1.66146428e-04  1.07150334e+04 
 4.44061145e-01  1.72141126e+00 -1.60653842e-04  1.07150334e+04 
 4.46061145e-01  1.66228619e+00 -1.55135888e-04  1.07150334e+04 
 4.48061145e-01  1.60289863e+00 -1.49593436e-04  1.07150334e+04 
 4.50061145e-01  1.54325796e+00 -1.44027361e-04  1.07150334e+04 
 4.52061145e-01  1.48337358e+00 -1.38438542e-04  1.07150334e+04 
 4.54061145e-01  1.42325497e+00 -1.32827863e-04  1.07150334e+04 
 4.56061145e-01  1.36291160e+00 -1.27196209e-04  1.07150334e+04 
 4.58061145e-01  1.30235302e+00 -1.21544468e-04  1.07150334e+04 
 4.60061145e-01  1.24158878e+00 -1.15873535e-04  1.07150334e+04 
 4.62061145e-01  1.18062848e+00 -1.10184304e-04  1.07150334e+04 
 4.64061145e-01  1.11948174e+00 -1.04477673e-04  1.07150334e+04 
 4.66061145e-01  1.05815822e+00 -9.87545440e-05  1.07150334e+04 
 4.68061145e-01  9.96667610e-01 -9.30158206e-05  1.07150334e+04 
 4.70061145e-01  9.35019613e-01 -8.72624090e-05  1.07150334e+04 
 4.72061145e-01  8.73223966e-01 -8.14952176e-05  1.07150334e+04 
 4.74061145e-01  8.11290426e-01 -7.57151571e-05  1.07150334e+04 
 4.76061145e-01  7.49228774e-01 -6.99231404e-05  1.07150334e+04 
 4.78061145e-01  6.87048810e-01 -6.41200820e-05  1.07150334e+04 
 4.80061145e-01  6.24760353e-01 -5.83068983e-05  1.07150334e+04 
 4.82061145e-01  5.62373239e-01 -5.24845072e-05  1.07150334e+04 
 4.84061145e-01  4.99897321e-01 -4.66538282e-05  1.07150334e+04 
 4.86061145e-01  4.37342462e-01 -4.08157821e-05  1.07150334e+04 
 4.88061145e-01  3.74718542e-01 -3.49712907e-05  1.07150334e+04 
 4.90061145e-01  3.12035450e-01 -2.91212769e-05  1.07150334e+04 
 4.92061145e-01  2.49303083e-01 -2.32666645e-05  1.07150334e+04 
 4.94061145e-01  1.86531349e-01 -1.74083780e-05  1.07150334e+04 
 4.96061145e-01  1.23730159e-01 -1.15473425e-05  1.07150334e+04 
 4.98061145e-01  6.09094311e-02 -5.68448363e-06  1.07150334e+04 
 5.00061145e-01 -1.92091536e-03  1.79594313e-07  1.06958242e+04 
 5.02061145e-01 -6.47509585e-02  6.45630454e-06  1.00291055e+04 
 5.04061145e-01 -1.27570777e-01  1.57380383e-05  8.10588811e+03 
 5.06061145e-01 -1.90370450e-01  3.86423190e-05  4.92647584e+03 
 5.06311145e-01 -1.98218499e-01  4.47351950e-05  4.43092959e+03 
 5.06811145e-01 -2.13913110e-01  6.29045093e-05  3.40060057e+03 
 5.07811145e-01 -2.45295843e-01  2.22076459e-04  1.10455581e+03 
 5.08736310e-01 -2.74321458e-01 -9.10156120e-03 -3.01400444e+01 
 5.08949876e-01 -2.81020472e-01 -9.32382408e-03 -3.01400444e+01 
 5.09070251e-01 -2.84796113e-01 -9.44909401e-03 -3.01400444e+01 
 5.09227054e-01 -2.89714091e-01 -9.61226492e-03 -3.01400444e+01 
 5.09540660e-01 -2.99549200e-01 -9.93857858e-03 -3.01400444e+01 
 5.10167873e-01 -3.19215889e-01 -1.05910889e-02 -3.01400444e+01 
 5.11422297e-01 -3.58534090e-01 -1.18956059e-02 -3.01400444e+01 
 5.13422297e-01 -4.21174240e-01 -1.39739091e-02 -3.01400444e+01 
 5.15422297e-01 -4.83747883e-01 -1.60500056e-02 -3.01400444e+01 
 5.17422297e-01 -5.46245135e-01 -1.81235677e-02 -3.01400444e+01 
 5.19422297e-01 -6.08656130e-01 -2.01942679e-02 -3.01400444e+01 
 5.21422297e-01 -6.70971011e-01 -2.22617791e-02 -3.01400444e+01 
 5.23422297e-01 -7.33179937e-01 -2.43257750e-02 -3.01400444e+01 
 5.25422297e-01 -7.95273086e-01 -2.63859295e-02 -3.01400444e+01 
 5.27422297e-01 -8.57240652e-01 -2.84419174e-02 -3.01400444e+01 
 5.29422297e-01 -9.19072850e-01 -3.04934140e-02 -3.01400444e+01 
 5.31422297e-01 -9.80759915e-01 -3.25400953e-02 -3.01400444e+01 
 5.33422297e-01 -1.04229211e+00 -3.45816381e-02 -3.01400444e+01 
 5.35422297e-01 -1.10365971e+00 -3.66177201e-02 -3.01400444e+01 
 5.37422297e-01 -1.16485303e+00 -3.86480198e-02 -3.01400444e+01 
 5.39422297e-01 -1.22586241e+00 -4.06722165e-02 -3.01400444e+01 
 5.41422297e-01 -1.28667821e+00 -4.26899905e-02 -3.01400444e+01 
 5.43422297e-01 -1.34729083e+00 -4.47010233e-02 -3.01400444e+01 
 5.45422297e-01 -1.40769069e+00 -4.67049974e-02 -3.01400444e+01 
 5.47422297e-01 -1.46786827e+00 -4.87015961e-02 -3.01400444e+01 
 5.49422297e-01 -1.52781405e+00 -5.06905043e-02 -3.01400444e+01 
 5.51422297e-01 -1.58751857e+00 -5.26714079e-02 -3.01400444e+01 
 5.53422297e-01 -1.64697241e+00 -5.46439941e-02 -3.01400444e+01 
 5.55422297e-01 -1.70616616e+00 -5.66079513e-02 -3.01400444e+01 
 5.57422297e-01 -1.76509050e+00 -5.85629695e-02 -3.01400444e+01 
 5.59422297e-01 -1.82373611e+00 -6.05087399e-02 -3.01400444e+01 
