 time            vin             i(v1)           l0             
 2.00000000e-05  6.28318529e-04 -1.25347879e-07  5.01256637e+03 
 4.00000000e-05  1.25663705e-03 -2.49446628e-07  5.03769911e+03 
 8.00000000e-05  2.51327402e-03 -4.91536512e-07  5.11309733e+03 
 1.60000000e-04  5.02654740e-03 -9.28316718e-07  5.41469019e+03 
 3.20000000e-04  1.00530897e-02 -1.51835024e-06  6.62106116e+03 
 3.60000000e-04  1.13097239e-02 -1.59889782e-06  7.07345012e+03 
 4.40000000e-04  1.38229901e-02 -1.71102898e-06  8.07875867e+03 
 4.60000000e-04  1.44513061e-02 -1.72701695e-06  8.36778480e+03 
 5.00000000e-04  1.57079374e-02 -1.75270127e-06  8.97096967e+03 
 5.10000000e-04  1.60220951e-02 -1.75465566e-06  9.13119062e+03 
 5.30000000e-04  1.66504103e-02 -1.76068173e-06  9.45791567e+03 
 5.35000000e-04  1.68074890e-02 -1.76314745e-06  9.54195312e+03 
 5.45000000e-04  1.71216465e-02 -1.76303817e-06  9.71159879e+03 
 5.47500000e-04  1.72001859e-02 -1.76371479e-06  9.75459926e+03 
 5.52500000e-04  1.73572645e-02 -1.76377596e-06  9.84099289e+03 
 5.53750000e-04  1.73965342e-02 -1.76397019e-06  9.86273855e+03 
 5.56250000e-04  1.74750736e-02 -1.76403213e-06  9.90632806e+03 
 5.61250000e-04  1.76321522e-02 -1.76425883e-06  9.99409613e+03 
 5.71250000e-04  1.79463095e-02 -1.77985082e-06  1.00822569e+04 
 5.91250000e-04  1.85746238e-02 -1.84230815e-06  1.00822569e+04 
 6.31250000e-04  1.98312516e-02 -1.96694570e-06  1.00822569e+04 
 7.02266703e-04  2.20622876e-02 -2.18822909e-06  1.00822569e+04 
 8.44300110e-04  2.65243458e-02 -2.63079451e-06  1.00822569e+04 
 1.12836692e-03  3.54483954e-02 -3.51591872e-06  1.00822569e+04 
 1.69650055e-03  5.32961274e-02 -5.28613073e-06  1.00822569e+04 
 2.00000000e-03  6.28301994e-02 -6.23175949e-06  1.00822569e+04 
 2.11362673e-03  6.63995901e-02 -6.58578645e-06  1.00822569e+04 
 2.34088018e-03  7.35382682e-02 -7.29383011e-06  1.00822569e+04 
 2.79538708e-03  8.78151599e-02 -8.70987139e-06  1.00822569e+04 
 3.70440088e-03  1.16366678e-01 -1.15417293e-05  1.00822569e+04 
 5.52242849e-03  1.73457396e-01 -1.72042232e-05  1.00822569e+04 
 7.52242849e-03  2.36236081e-01 -2.34308732e-05  1.00822569e+04 
 9.52242849e-03  2.98977461e-01 -2.96538233e-05  1.00822569e+04 
 1.15224285e-02  3.61671629e-01 -3.58720906e-05  1.00822569e+04 
 1.35224285e-02  4.24308685e-01 -4.20846933e-05  1.00822569e+04 
 1.55224285e-02  4.86878738e-01 -4.82906504e-05  1.00822569e+04 
 1.75224285e-02  5.49371907e-01 -5.44889818e-05  1.00822569e+04 
 1.95224285e-02  6.11778323e-01 -6.06787088e-05  1.00822569e+04 
 2.15224285e-02  6.74088133e-01 -6.68588539e-05  1.00822569e+04 
 2.35224285e-02  7.36291497e-01 -7.30284412e-05  1.00822569e+04 
 2.55224285e-02  7.98378591e-01 -7.91864964e-05  1.00822569e+04 
 2.75224285e-02  8.60339613e-01 -8.53320473e-05  1.00822569e+04 
 2.95224285e-02  9.22164776e-01 -9.14641231e-05  1.00822569e+04 
 3.15224285e-02  9.83844319e-01 -9.75817558e-05  1.00822569e+04 
 3.35224285e-02  1.04536850e+00 -1.03683979e-04  1.00822569e+04 
 3.55224285e-02  1.10672761e+00 -1.09769830e-04  1.00822569e+04 
 3.75224285e-02  1.16791195e+00 -1.15838346e-04  1.00822569e+04 
 3.95224285e-02  1.22891187e+00 -1.21888570e-04  1.00822569e+04 
 4.15224285e-02  1.28971772e+00 -1.27919547e-04  1.00822569e+04 
 4.35224285e-02  1.35031992e+00 -1.33930324e-04  1.00822569e+04 
 4.55224285e-02  1.41070888e+00 -1.39919951e-04  1.00822569e+04 
 4.75224285e-02  1.47087507e+00 -1.45887484e-04  1.00822569e+04 
 4.95224285e-02  1.53080900e+00 -1.51831979e-04  1.00822569e+04 
 5.15224285e-02  1.59050120e+00 -1.57752498e-04  1.00822569e+04 
 5.35224285e-02  1.64994223e+00 -1.63648107e-04  1.00822569e+04 
 5.55224285e-02  1.70912273e+00 -1.69517873e-04  1.00822569e+04 
 5.75224285e-02  1.76803333e+00 -1.75360870e-04  1.00822569e+04 
 5.95224285e-02  1.82666473e+00 -1.81176176e-04  1.00822569e+04 
 6.15224285e-02  1.88500769e+00 -1.86962873e-04  1.00822569e+04 
 6.35224285e-02  1.94305298e+00 -1.92720045e-04  1.00822569e+04 
 6.55224285e-02  2.00079144e+00 -1.98446785e-04  1.00822569e+04 
 6.75224285e-02  2.05821396e+00 -2.04142188e-04  1.00822569e+04 
 6.95224285e-02  2.11531146e+00 -2.09805354e-04  1.00822569e+04 
 7.15224285e-02  2.17207492e+00 -2.15435390e-04  1.00822569e+04 
 7.35224285e-02  2.22849539e+00 -2.21031406e-04  1.00822569e+04 
 7.55224285e-02  2.28456395e+00 -2.26592518e-04  1.00822569e+04 
 7.75224285e-02  2.34027176e+00 -2.32117849e-04  1.00822569e+04 
 7.95224285e-02  2.39561001e+00 -2.37606526e-04  1.00822569e+04 
 8.15224285e-02  2.45056996e+00 -2.43057682e-04  1.00822569e+04 
 8.35224285e-02  2.50514294e+00 -2.48470456e-04  1.00822569e+04 
 8.55224285e-02  2.55932033e+00 -2.53843994e-04  1.00822569e+04 
 8.75224285e-02  2.61309358e+00 -2.59177447e-04  1.00822569e+04 
 8.95224285e-02  2.66645418e+00 -2.64469973e-04  1.00822569e+04 
 9.15224285e-02  2.71939373e+00 -2.69720736e-04  1.00822569e+04 
 9.35224285e-02  2.77190384e+00 -2.74928908e-04  1.00822569e+04 
 9.55224285e-02  2.82397625e+00 -2.80093664e-04  1.00822569e+04 
 9.75224285e-02  2.87560271e+00 -2.85214191e-04  1.00822569e+04 
 9.95224285e-02  2.92677508e+00 -2.90289679e-04  1.00822569e+04 
 1.01522428e-01  2.97748528e+00 -2.95319326e-04  1.00822569e+04 
 1.03522428e-01  3.02772530e+00 -3.00302340e-04  1.00822569e+04 
 1.05522428e-01  3.07748721e+00 -3.05237932e-04  1.00822569e+04 
 1.07522428e-01  3.12676315e+00 -3.10125324e-04  1.00822569e+04 
 1.09522428e-01  3.17554534e+00 -3.14963743e-04  1.00822569e+04 
 1.11522428e-01  3.22382607e+00 -3.19752426e-04  1.00822569e+04 
 1.13522428e-01  3.27159772e+00 -3.24490616e-04  1.00822569e+04 
 1.15522428e-01  3.31885274e+00 -3.29177566e-04  1.00822569e+04 
 1.17522428e-01  3.36558369e+00 -3.33812534e-04  1.00822569e+04 
 1.19522428e-01  3.41178316e+00 -3.38394790e-04  1.00822569e+04 
 1.21522428e-01  3.45744388e+00 -3.42923609e-04  1.00822569e+04 
 1.23522428e-01  3.50255863e+00 -3.47398276e-04  1.00822569e+04 
 1.25522428e-01  3.54712028e+00 -3.51818086e-04  1.00822569e+04 
 1.27522428e-01  3.59112180e+00 -3.56182339e-04  1.00822569e+04 
 1.29522428e-01  3.63455624e+00 -3.60490347e-04  1.00822569e+04 
 1.31522428e-01  3.67741675e+00 -3.64741429e-04  1.00822569e+04 
 1.33522428e-01  3.71969654e+00 -3.68934914e-04  1.00822569e+04 
 1.35522428e-01  3.76138895e+00 -3.73070140e-04  1.00822569e+04 
 1.37522428e-01  3.80248740e+00 -3.77146454e-04  1.00822569e+04 
 1.39522428e-01  3.84298539e+00 -3.81163213e-04  1.00822569e+04 
 1.41522428e-01  3.88287652e+00 -3.85119781e-04  1.00822569e+04 
 1.43522428e-01  3.92215451e+00 -3.89015534e-04  1.00822569e+04 
 1.45522428e-01  3.96081314e+00 -3.92849858e-04  1.00822569e+04 
 1.47522428e-01  3.99884632e+00 -3.96622145e-04  1.00822569e+04 
 1.49522428e-01  4.03624803e+00 -4.00331802e-04  1.00822569e+04 
 1.51522428e-01  4.07301236e+00 -4.03978241e-04  1.00822569e+04 
 1.53522428e-01  4.10913353e+00 -4.07560888e-04  1.00822569e+04 
 1.55522428e-01  4.14460581e+00 -4.11079176e-04  1.00822569e+04 
 1.57522428e-01  4.17942361e+00 -4.14532550e-04  1.00822569e+04 
 1.59522428e-01  4.21358144e+00 -4.17920464e-04  1.00822569e+04 
 1.61522428e-01  4.24707389e+00 -4.21242384e-04  1.00822569e+04 
 1.63522428e-01  4.27989567e+00 -4.24497785e-04  1.00822569e+04 
 1.65522428e-01  4.31204161e+00 -4.27686153e-04  1.00822569e+04 
 1.67522428e-01  4.34350664e+00 -4.30806984e-04  1.00822569e+04 
 1.69522428e-01  4.37428577e+00 -4.33859785e-04  1.00822569e+04 
 1.71522428e-01  4.40437415e+00 -4.36844076e-04  1.00822569e+04 
 1.73522428e-01  4.43376702e+00 -4.39759383e-04  1.00822569e+04 
 1.75522428e-01  4.46245976e+00 -4.42605247e-04  1.00822569e+04 
 1.77522428e-01  4.49044782e+00 -4.45381219e-04  1.00822569e+04 
 1.79522428e-01  4.51772679e+00 -4.48086860e-04  1.00822569e+04 
 1.81522428e-01  4.54429235e+00 -4.50721743e-04  1.00822569e+04 
 1.83522428e-01  4.57014032e+00 -4.53285452e-04  1.00822569e+04 
 1.85522428e-01  4.59526661e+00 -4.55777582e-04  1.00822569e+04 
 1.87522428e-01  4.61966726e+00 -4.58197739e-04  1.00822569e+04 
 1.89522428e-01  4.64333841e+00 -4.60545541e-04  1.00822569e+04 
 1.91522428e-01  4.66627632e+00 -4.62820618e-04  1.00822569e+04 
 1.93522428e-01  4.68847737e+00 -4.65022610e-04  1.00822569e+04 
 1.95522428e-01  4.70993805e+00 -4.67151170e-04  1.00822569e+04 
 1.97522428e-01  4.73065498e+00 -4.69205961e-04  1.00822569e+04 
 1.99522428e-01  4.75062489e+00 -4.71186659e-04  1.00822569e+04 
 2.01522428e-01  4.76984462e+00 -4.73092951e-04  1.00822569e+04 
 2.03522428e-01  4.78831113e+00 -4.74924536e-04  1.00822569e+04 
 2.05522428e-01  4.80602151e+00 -4.76681126e-04  1.00822569e+04 
 2.07522428e-01  4.82297297e+00 -4.78362442e-04  1.00822569e+04 
 2.09522428e-01  4.83916283e+00 -4.79968218e-04  1.00822569e+04 
 2.11522428e-01  4.85458852e+00 -4.81498203e-04  1.00822569e+04 
 2.13522428e-01  4.86924762e+00 -4.82952153e-04  1.00822569e+04 
 2.15522428e-01  4.88313781e+00 -4.84329839e-04  1.00822569e+04 
 2.17522428e-01  4.89625689e+00 -4.85631044e-04  1.00822569e+04 
 2.19522428e-01  4.90860280e+00 -4.86855562e-04  1.00822569e+04 
 2.21522428e-01  4.92017358e+00 -4.88003201e-04  1.00822569e+04 
 2.23522428e-01  4.93096741e+00 -4.89073777e-04  1.00822569e+04 
 2.25522428e-01  4.94098259e+00 -4.90067124e-04  1.00822569e+04 
 2.27522428e-01  4.95021752e+00 -4.90983083e-04  1.00822569e+04 
 2.29522428e-01  4.95867076e+00 -4.91821510e-04  1.00822569e+04 
 2.31522428e-01  4.96634096e+00 -4.92582273e-04  1.00822569e+04 
 2.33522428e-01  4.97322693e+00 -4.93265251e-04  1.00822569e+04 
 2.35522428e-01  4.97932756e+00 -4.93870338e-04  1.00822569e+04 
 2.37522428e-01  4.98464190e+00 -4.94397436e-04  1.00822569e+04 
 2.39522428e-01  4.98916911e+00 -4.94846463e-04  1.00822569e+04 
 2.41522428e-01  4.99290847e+00 -4.95217348e-04  1.00822569e+04 
 2.43522428e-01  4.99585939e+00 -4.95510033e-04  1.00822569e+04 
 2.45522428e-01  4.99802141e+00 -4.95724471e-04  1.00822569e+04 
 2.47522428e-01  4.99939418e+00 -4.95860628e-04  1.00822569e+04 
 2.49522428e-01  4.99997749e+00 -4.95918483e-04  1.00822569e+04 
 2.51522428e-01  4.99977125e+00 -4.95898027e-04  1.00822569e+04 
 2.53522428e-01  4.99877548e+00 -4.95799262e-04  1.00822569e+04 
 2.55522428e-01  4.99699035e+00 -4.95622206e-04  1.00822569e+04 
 2.57522428e-01  4.99441613e+00 -4.95366885e-04  1.00822569e+04 
 2.59522428e-01  4.99105324e+00 -4.95033339e-04  1.00822569e+04 
 2.61522428e-01  4.98690221e+00 -4.94621622e-04  1.00822569e+04 
 2.63522428e-01  4.98196368e+00 -4.94131799e-04  1.00822569e+04 
 2.65522428e-01  4.97623845e+00 -4.93563946e-04  1.00822569e+04 
 2.67522428e-01  4.96972741e+00 -4.92918154e-04  1.00822569e+04 
 2.69522428e-01  4.96243159e+00 -4.92194525e-04  1.00822569e+04 
 2.71522428e-01  4.95435215e+00 -4.91393172e-04  1.00822569e+04 
 2.73522428e-01  4.94549035e+00 -4.90514223e-04  1.00822569e+04 
 2.75522428e-01  4.93584761e+00 -4.89557816e-04  1.00822569e+04 
 2.77522428e-01  4.92542544e+00 -4.88524102e-04  1.00822569e+04 
 2.79522428e-01  4.91422549e+00 -4.87413244e-04  1.00822569e+04 
 2.81522428e-01  4.90224952e+00 -4.86225418e-04  1.00822569e+04 
 2.83522428e-01  4.88949943e+00 -4.84960811e-04  1.00822569e+04 
 2.85522428e-01  4.87597724e+00 -4.83619624e-04  1.00822569e+04 
 2.87522428e-01  4.86168507e+00 -4.82202067e-04  1.00822569e+04 
 2.89522428e-01  4.84662518e+00 -4.80708365e-04  1.00822569e+04 
 2.91522428e-01  4.83079995e+00 -4.79138754e-04  1.00822569e+04 
 2.93522428e-01  4.81421189e+00 -4.77493481e-04  1.00822569e+04 
 2.95522428e-01  4.79686361e+00 -4.75772806e-04  1.00822569e+04 
 2.97522428e-01  4.77875784e+00 -4.73977002e-04  1.00822569e+04 
 2.99522428e-01  4.75989746e+00 -4.72106351e-04  1.00822569e+04 
 3.01522428e-01  4.74028543e+00 -4.70161148e-04  1.00822569e+04 
 3.03522428e-01  4.71992485e+00 -4.68141702e-04  1.00822569e+04 
 3.05522428e-01  4.69881895e+00 -4.66048331e-04  1.00822569e+04 
 3.07522428e-01  4.67697105e+00 -4.63881365e-04  1.00822569e+04 
 3.09522428e-01  4.65438459e+00 -4.61641148e-04  1.00822569e+04 
 3.11522428e-01  4.63106316e+00 -4.59328031e-04  1.00822569e+04 
 3.13522428e-01  4.60701043e+00 -4.56942382e-04  1.00822569e+04 
 3.15522428e-01  4.58223020e+00 -4.54484576e-04  1.00822569e+04 
 3.17522428e-01  4.55672638e+00 -4.51955001e-04  1.00822569e+04 
 3.19522428e-01  4.53050300e+00 -4.49354058e-04  1.00822569e+04 
 3.21522428e-01  4.50356420e+00 -4.46682157e-04  1.00822569e+04 
 3.23522428e-01  4.47591424e+00 -4.43939719e-04  1.00822569e+04 
 3.25522428e-01  4.44755748e+00 -4.41127178e-04  1.00822569e+04 
 3.27522428e-01  4.41849840e+00 -4.38244977e-04  1.00822569e+04 
 3.29522428e-01  4.38874158e+00 -4.35293573e-04  1.00822569e+04 
 3.31522428e-01  4.35829174e+00 -4.32273431e-04  1.00822569e+04 
 3.33522428e-01  4.32715366e+00 -4.29185028e-04  1.00822569e+04 
 3.35522428e-01  4.29533228e+00 -4.26028852e-04  1.00822569e+04 
 3.37522428e-01  4.26283262e+00 -4.22805401e-04  1.00822569e+04 
 3.39522428e-01  4.22965981e+00 -4.19515184e-04  1.00822569e+04 
 3.41522428e-01  4.19581908e+00 -4.16158720e-04  1.00822569e+04 
 3.43522428e-01  4.16131579e+00 -4.12736541e-04  1.00822569e+04 
 3.45522428e-01  4.12615537e+00 -4.09249185e-04  1.00822569e+04 
 3.47522428e-01  4.09034339e+00 -4.05697204e-04  1.00822569e+04 
 3.49522428e-01  4.05388550e+00 -4.02081159e-04  1.00822569e+04 
 3.51522428e-01  4.01678745e+00 -3.98401621e-04  1.00822569e+04 
 3.53522428e-01  3.97905510e+00 -3.94659170e-04  1.00822569e+04 
 3.55522428e-01  3.94069441e+00 -3.90854399e-04  1.00822569e+04 
 3.57522428e-01  3.90171144e+00 -3.86987906e-04  1.00822569e+04 
 3.59522428e-01  3.86211235e+00 -3.83060304e-04  1.00822569e+04 
 3.61522428e-01  3.82190339e+00 -3.79072212e-04  1.00822569e+04 
 3.63522428e-01  3.78109090e+00 -3.75024261e-04  1.00822569e+04 
 3.65522428e-01  3.73968133e+00 -3.70917088e-04  1.00822569e+04 
 3.67522428e-01  3.69768123e+00 -3.66751344e-04  1.00822569e+04 
 3.69522428e-01  3.65509721e+00 -3.62527685e-04  1.00822569e+04 
 3.71522428e-01  3.61193602e+00 -3.58246779e-04  1.00822569e+04 
 3.73522428e-01  3.56820446e+00 -3.53909302e-04  1.00822569e+04 
 3.75522428e-01  3.52390944e+00 -3.49515938e-04  1.00822569e+04 
 3.77522428e-01  3.47905795e+00 -3.45067381e-04  1.00822569e+04 
 3.79522428e-01  3.43365708e+00 -3.40564335e-04  1.00822569e+04 
 3.81522428e-01  3.38771399e+00 -3.36007509e-04  1.00822569e+04 
 3.83522428e-01  3.34123595e+00 -3.31397624e-04  1.00822569e+04 
 3.85522428e-01  3.29423028e+00 -3.26735408e-04  1.00822569e+04 
 3.87522428e-01  3.24670442e+00 -3.22021596e-04  1.00822569e+04 
 3.89522428e-01  3.19866586e+00 -3.17256933e-04  1.00822569e+04 
 3.91522428e-01  3.15012220e+00 -3.12442171e-04  1.00822569e+04 
 3.93522428e-01  3.10108110e+00 -3.07578072e-04  1.00822569e+04 
 3.95522428e-01  3.05155030e+00 -3.02665402e-04  1.00822569e+04 
 3.97522428e-01  3.00153763e+00 -2.97704938e-04  1.00822569e+04 
 3.99522428e-01  2.95105098e+00 -2.92697463e-04  1.00822569e+04 
 4.01522428e-01  2.90009832e+00 -2.87643767e-04  1.00822569e+04 
 4.03522428e-01  2.84868771e+00 -2.82544649e-04  1.00822569e+04 
 4.05522428e-01  2.79682725e+00 -2.77400914e-04  1.00822569e+04 
 4.07522428e-01  2.74452514e+00 -2.72213375e-04  1.00822569e+04 
 4.09522428e-01  2.69178964e+00 -2.66982849e-04  1.00822569e+04 
 4.11522428e-01  2.63862908e+00 -2.61710164e-04  1.00822569e+04 
 4.13522428e-01  2.58505184e+00 -2.56396152e-04  1.00822569e+04 
 4.15522428e-01  2.53106640e+00 -2.51041652e-04  1.00822569e+04 
 4.17522428e-01  2.47668127e+00 -2.45647509e-04  1.00822569e+04 
 4.19522428e-01  2.42190504e+00 -2.40214576e-04  1.00822569e+04 
 4.21522428e-01  2.36674637e+00 -2.34743711e-04  1.00822569e+04 
 4.23522428e-01  2.31121396e+00 -2.29235776e-04  1.00822569e+04 
 4.25522428e-01  2.25531658e+00 -2.23691643e-04  1.00822569e+04 
 4.27522428e-01  2.19906307e+00 -2.18112186e-04  1.00822569e+04 
 4.29522428e-01  2.14246229e+00 -2.12498287e-04  1.00822569e+04 
 4.31522428e-01  2.08552320e+00 -2.06850831e-04  1.00822569e+04 
 4.33522428e-01  2.02825477e+00 -2.01170712e-04  1.00822569e+04 
 4.35522428e-01  1.97066607e+00 -1.95458825e-04  1.00822569e+04 
 4.37522428e-01  1.91276617e+00 -1.89716073e-04  1.00822569e+04 
 4.39522428e-01  1.85456422e+00 -1.83943363e-04  1.00822569e+04 
 4.41522428e-01  1.79606942e+00 -1.78141606e-04  1.00822569e+04 
 4.43522428e-01  1.73729099e+00 -1.72311718e-04  1.00822569e+04 
 4.45522428e-01  1.67823823e+00 -1.66454621e-04  1.00822569e+04 
 4.47522428e-01  1.61892045e+00 -1.60571238e-04  1.00822569e+04 
 4.49522428e-01  1.55934703e+00 -1.54662499e-04  1.00822569e+04 
 4.51522428e-01  1.49952737e+00 -1.48729337e-04  1.00822569e+04 
 4.53522428e-01  1.43947091e+00 -1.42772689e-04  1.00822569e+04 
 4.55522428e-01  1.37918715e+00 -1.36793496e-04  1.00822569e+04 
 4.57522428e-01  1.31868560e+00 -1.30792701e-04  1.00822569e+04 
 4.59522428e-01  1.25797581e+00 -1.24771253e-04  1.00822569e+04 
 4.61522428e-01  1.19706737e+00 -1.18730102e-04  1.00822569e+04 
 4.63522428e-01  1.13596990e+00 -1.12670201e-04  1.00822569e+04 
 4.65522428e-01  1.07469305e+00 -1.06592510e-04  1.00822569e+04 
 4.67522428e-01  1.01324649e+00 -1.00497985e-04  1.00822569e+04 
 4.69522428e-01  9.51639934e-01 -9.43875914e-05  1.00822569e+04 
 4.71522428e-01  8.89883098e-01 -8.82622925e-05  1.00822569e+04 
 4.73522428e-01  8.27985739e-01 -8.21230560e-05  1.00822569e+04 
 4.75522428e-01  7.65957631e-01 -7.59708513e-05  1.00822569e+04 
 4.77522428e-01  7.03808570e-01 -6.98066500e-05  1.00822569e+04 
 4.79522428e-01  6.41548370e-01 -6.36314253e-05  1.00822569e+04 
 4.81522428e-01  5.79186861e-01 -5.74461525e-05  1.00822569e+04 
 4.83522428e-01  5.16733893e-01 -5.12518083e-05  1.00822569e+04 
 4.85522428e-01  4.54199325e-01 -4.50493709e-05  1.00822569e+04 
 4.87522428e-01  3.91593035e-01 -3.88398196e-05  1.00822569e+04 
 4.89522428e-01  3.28924908e-01 -3.26241351e-05  1.00822569e+04 
 4.91522428e-01  2.66204839e-01 -2.64032988e-05  1.00822569e+04 
 4.93522428e-01  2.03442734e-01 -2.01782932e-05  1.00822569e+04 
 4.95522428e-01  1.40648502e-01 -1.39501012e-05  1.00822569e+04 
 4.97522428e-01  7.78320609e-02 -7.71970627e-06  1.00822569e+04 
 4.99522428e-01  1.50033290e-02 -1.48809233e-06  1.00822569e+04 
 4.99772428e-01  7.14936740e-03 -7.09103879e-07  1.00822569e+04 
 5.00272428e-01 -8.55858926e-03  1.07755382e-06  7.94260957e+03 
 5.00349525e-01 -1.09806466e-02  1.54743331e-06  7.09603873e+03 
 5.00503718e-01 -1.58247531e-02  3.14642901e-06  5.02943278e+03 
 5.00542267e-01 -1.70357776e-02  3.89591144e-06  4.37273227e+03 
 5.00619363e-01 -1.94578235e-02  6.56036754e-06  2.96596546e+03 
 5.00638637e-01 -2.00633342e-02  7.77871245e-06  2.57926160e+03 
 5.00677186e-01 -2.12743549e-02  1.19350384e-05  1.78251248e+03 
 5.00683675e-01 -2.14782276e-02  1.30715417e-05  1.64312888e+03 
 5.00696654e-01 -2.18859730e-02  1.60723522e-05  1.36171562e+03 
 5.00699899e-01 -2.19879093e-02  1.70400032e-05  1.29037003e+03 
 5.00706389e-01 -2.21917819e-02  1.93473817e-05  1.14701732e+03 
 5.00708011e-01 -2.22427500e-02  2.00217193e-05  1.11093107e+03 
 5.00711256e-01 -2.23446863e-02  2.15143776e-05  1.03859320e+03 
 5.00717745e-01 -2.25485588e-02  2.33400201e-05  9.66089948e+02 
 5.00729253e-01 -2.29100673e-02  2.37142177e-05  9.66089948e+02 
 5.00746198e-01 -2.34424092e-02  2.42652449e-05  9.66089948e+02 
 5.00762616e-01 -2.39581959e-02  2.47991359e-05  9.66089948e+02 
 5.00795452e-01 -2.49897687e-02  2.58669172e-05  9.66089948e+02 
 5.00861125e-01 -2.70529110e-02  2.80024764e-05  9.66089948e+02 
 5.00992471e-01 -3.11791814e-02  3.22735802e-05  9.66089948e+02 
 5.01255162e-01 -3.94316558e-02  4.08157189e-05  9.66089948e+02 
 5.01780544e-01 -5.59362597e-02  5.78996395e-05  9.66089948e+02 
 5.02831308e-01 -8.89434591e-02  9.20654017e-05  9.66089948e+02 
