 time            vin             i(v1)           l0             
 2.00000000e-05  6.28318529e-04 -1.25663706e-07  5.00000001e+03 
 4.00000000e-05  1.25663705e-03 -2.51327410e-07  5.00000004e+03 
 8.00000000e-05  2.51327402e-03 -5.02654798e-07  5.00000011e+03 
 1.60000000e-04  5.02654740e-03 -1.00530943e-06  5.00000041e+03 
 3.20000000e-04  1.00530897e-02 -2.01061754e-06  5.00000162e+03 
 6.40000000e-04  2.01061388e-02 -4.02122454e-06  5.00000645e+03 
 1.28000000e-03  4.02119525e-02 -8.04236464e-06  5.00002575e+03 
 2.00000000e-03  6.28301994e-02 -1.25659156e-05  5.00006285e+03 
 2.12800000e-03  6.68510998e-02 -1.33700305e-05  5.00007140e+03 
 2.38400000e-03  7.48927681e-02 -1.49782913e-05  5.00008955e+03 
 2.89600000e-03  9.09755027e-02 -1.81946476e-05  5.00013201e+03 
 3.92000000e-03  1.23137981e-01 -2.46265472e-05  5.00024164e+03 
 5.92000000e-03  1.85939401e-01 -3.71845611e-05  5.00055072e+03 
 7.92000000e-03  2.48711460e-01 -4.97335819e-05  5.00098537e+03 
 9.92000000e-03  3.11444243e-01 -6.22710054e-05  5.00154552e+03 
 1.19200000e-02  3.74127847e-01 -7.47939124e-05  5.00223110e+03 
 1.39200000e-02  4.36752371e-01 -8.72993903e-05  5.00304198e+03 
 1.59200000e-02  4.99307926e-01 -9.97845342e-05  5.00397804e+03 
 1.79200000e-02  5.61784636e-01 -1.12246448e-04  5.00503913e+03 
 1.99200000e-02  6.24172633e-01 -1.24682246e-04  5.00622509e+03 
 2.19200000e-02  6.86462065e-01 -1.37089053e-04  5.00753574e+03 
 2.39200000e-02  7.48643098e-01 -1.49464009e-04  5.00897085e+03 
 2.59200000e-02  8.10705911e-01 -1.61804267e-04  5.01053020e+03 
 2.79200000e-02  8.72640704e-01 -1.74106992e-04  5.01221355e+03 
 2.99200000e-02  9.34437698e-01 -1.86369371e-04  5.01402063e+03 
 3.19200000e-02  9.96087132e-01 -1.98588604e-04  5.01595115e+03 
 3.39200000e-02  1.05757927e+00 -2.10761911e-04  5.01800482e+03 
 3.59200000e-02  1.11890441e+00 -2.22886534e-04  5.02018132e+03 
 3.79200000e-02  1.18005286e+00 -2.34959734e-04  5.02248028e+03 
 3.99200000e-02  1.24101496e+00 -2.46978795e-04  5.02490136e+03 
 4.19200000e-02  1.30178110e+00 -2.58941024e-04  5.02744416e+03 
 4.39200000e-02  1.36234167e+00 -2.70843752e-04  5.03010828e+03 
 4.59200000e-02  1.42268710e+00 -2.82684336e-04  5.03289332e+03 
 4.79200000e-02  1.48280788e+00 -2.94460160e-04  5.03579882e+03 
 4.99200000e-02  1.54269451e+00 -3.06168634e-04  5.03882433e+03 
 5.19200000e-02  1.60233753e+00 -3.17807200e-04  5.04196936e+03 
 5.39200000e-02  1.66172752e+00 -3.29373324e-04  5.04523343e+03 
 5.59200000e-02  1.72085510e+00 -3.40864507e-04  5.04861602e+03 
 5.79200000e-02  1.77971094e+00 -3.52278279e-04  5.05211659e+03 
 5.99200000e-02  1.83828575e+00 -3.63612203e-04  5.05573459e+03 
 6.19200000e-02  1.89657027e+00 -3.74863876e-04  5.05946945e+03 
 6.39200000e-02  1.95455529e+00 -3.86030928e-04  5.06332058e+03 
 6.59200000e-02  2.01223167e+00 -3.97111023e-04  5.06728737e+03 
 6.79200000e-02  2.06959030e+00 -4.08101861e-04  5.07136920e+03 
 6.99200000e-02  2.12662211e+00 -4.19001180e-04  5.07556541e+03 
 7.19200000e-02  2.18331811e+00 -4.29806752e-04  5.07987536e+03 
 7.39200000e-02  2.23966933e+00 -4.40516389e-04  5.08429835e+03 
 7.59200000e-02  2.29566688e+00 -4.51127940e-04  5.08883370e+03 
 7.79200000e-02  2.35130192e+00 -4.61639294e-04  5.09348069e+03 
 7.99200000e-02  2.40656567e+00 -4.72048379e-04  5.09823856e+03 
 8.19200000e-02  2.46144939e+00 -4.82353164e-04  5.10310659e+03 
 8.39200000e-02  2.51594441e+00 -4.92551658e-04  5.10808399e+03 
 8.59200000e-02  2.57004214e+00 -5.02641911e-04  5.11316998e+03 
 8.79200000e-02  2.62373404e+00 -5.12622013e-04  5.11836376e+03 
 8.99200000e-02  2.67701161e+00 -5.22490098e-04  5.12366453e+03 
 9.19200000e-02  2.72986645e+00 -5.32244345e-04  5.12907143e+03 
 9.39200000e-02  2.78229022e+00 -5.41882972e-04  5.13458359e+03 
 9.59200000e-02  2.83427462e+00 -5.51404242e-04  5.14020016e+03 
 9.79200000e-02  2.88581147e+00 -5.60806460e-04  5.14592026e+03 
 9.99200000e-02  2.93689261e+00 -5.70087977e-04  5.15174297e+03 
 1.01920000e-01  2.98750998e+00 -5.79247187e-04  5.15766738e+03 
 1.03920000e-01  3.03765559e+00 -5.88282527e-04  5.16369256e+03 
 1.05920000e-01  3.08732152e+00 -5.97192481e-04  5.16981756e+03 
 1.07920000e-01  3.13649992e+00 -6.05975576e-04  5.17604139e+03 
 1.09920000e-01  3.18518304e+00 -6.14630387e-04  5.18236309e+03 
 1.11920000e-01  3.23336317e+00 -6.23155530e-04  5.18878164e+03 
 1.13920000e-01  3.28103272e+00 -6.31549667e-04  5.19529605e+03 
 1.15920000e-01  3.32818416e+00 -6.39811506e-04  5.20190528e+03 
 1.17920000e-01  3.37481004e+00 -6.47939801e-04  5.20860828e+03 
 1.19920000e-01  3.42090300e+00 -6.55933347e-04  5.21540401e+03 
 1.21920000e-01  3.46645576e+00 -6.63790988e-04  5.22229139e+03 
 1.23920000e-01  3.51146112e+00 -6.71511613e-04  5.22926933e+03 
 1.25920000e-01  3.55591198e+00 -6.79094156e-04  5.23633672e+03 
 1.27920000e-01  3.59980133e+00 -6.86537592e-04  5.24349245e+03 
 1.29920000e-01  3.64312222e+00 -6.93840947e-04  5.25073539e+03 
 1.31920000e-01  3.68586782e+00 -7.01003285e-04  5.25806439e+03 
 1.33920000e-01  3.72803139e+00 -7.08023718e-04  5.26547831e+03 
 1.35920000e-01  3.76960625e+00 -7.14901403e-04  5.27297596e+03 
 1.37920000e-01  3.81058584e+00 -7.21635538e-04  5.28055616e+03 
 1.39920000e-01  3.85096371e+00 -7.28225366e-04  5.28821773e+03 
 1.41920000e-01  3.89073346e+00 -7.34670174e-04  5.29595944e+03 
 1.43920000e-01  3.92988881e+00 -7.40969292e-04  5.30378008e+03 
 1.45920000e-01  3.96842360e+00 -7.47122093e-04  5.31167840e+03 
 1.47920000e-01  4.00633172e+00 -7.53127990e-04  5.31965318e+03 
 1.49920000e-01  4.04360720e+00 -7.58986441e-04  5.32770315e+03 
 1.51920000e-01  4.08024414e+00 -7.64696945e-04  5.33582702e+03 
 1.53920000e-01  4.11623677e+00 -7.70259044e-04  5.34402352e+03 
 1.55920000e-01  4.15157939e+00 -7.75672318e-04  5.35229135e+03 
 1.57920000e-01  4.18626643e+00 -7.80936387e-04  5.36062922e+03 
 1.59920000e-01  4.22029241e+00 -7.86050916e-04  5.36903579e+03 
 1.61920000e-01  4.25365196e+00 -7.91015604e-04  5.37750976e+03 
 1.63920000e-01  4.28633981e+00 -7.95830192e-04  5.38604976e+03 
 1.65920000e-01  4.31835080e+00 -8.00494462e-04  5.39465446e+03 
 1.67920000e-01  4.34967986e+00 -8.05008228e-04  5.40332251e+03 
 1.69920000e-01  4.38032207e+00 -8.09371348e-04  5.41205252e+03 
 1.71920000e-01  4.41027257e+00 -8.13583713e-04  5.42084313e+03 
 1.73920000e-01  4.43952663e+00 -8.17645253e-04  5.42969295e+03 
 1.75920000e-01  4.46807965e+00 -8.21555933e-04  5.43860057e+03 
 1.77920000e-01  4.49592710e+00 -8.25315756e-04  5.44756458e+03 
 1.79920000e-01  4.52306459e+00 -8.28924755e-04  5.45658359e+03 
 1.81920000e-01  4.54948784e+00 -8.32383004e-04  5.46565616e+03 
 1.83920000e-01  4.57519267e+00 -8.35690605e-04  5.47478086e+03 
 1.84170000e-01  4.57835506e+00 -8.36087877e-04  5.47592545e+03 
 1.84670000e-01  4.58464593e+00 -8.36886976e-04  5.47821620e+03 
 1.85670000e-01  4.59709188e+00 -8.38457208e-04  5.48280708e+03 
 1.85701250e-01  4.59747789e+00 -8.38504324e-04  5.48295075e+03 
 1.85763750e-01  4.59824939e+00 -8.38601086e-04  5.48323812e+03 
 1.85888750e-01  4.59979025e+00 -8.38794174e-04  5.48381300e+03 
 1.85892656e-01  4.59983836e+00 -8.38800177e-04  5.48383096e+03 
 1.85900469e-01  4.59993456e+00 -8.38812224e-04  5.48386690e+03 
 1.85902422e-01  4.59995861e+00 -8.38815235e-04  5.48387588e+03 
 1.85906328e-01  4.60000671e+00 -8.18775156e-04  5.61494763e+03 
 1.85912501e-01  4.60008271e+00 -5.49262122e-04  8.37502272e+03 
 1.85918733e-01  4.60015943e+00 -4.59953737e-04  1.00013526e+04 
 1.85924998e-01  4.60023654e+00 -4.59947108e-04  1.00016643e+04 
 1.85933963e-01  4.60034690e+00 -4.59954901e-04  1.00017348e+04 
 1.85943779e-01  4.60046769e+00 -4.59965809e-04  1.00017602e+04 
 1.85963409e-01  4.60070921e+00 -4.59991188e-04  1.00017335e+04 
 1.86002669e-01  4.60119206e+00 -4.60044702e-04  1.00016196e+04 
 1.86081191e-01  4.60215691e+00 -4.60147571e-04  1.00014805e+04 
 1.86238233e-01  4.60408325e+00 -4.60347253e-04  1.00013267e+04 
 1.86552318e-01  4.60792247e+00 -4.60729144e-04  1.00013681e+04 
 1.87180489e-01  4.61554708e+00 -4.61490213e-04  1.00013977e+04 
 1.88436829e-01  4.63058046e+00 -4.62993566e-04  1.00013928e+04 
 1.90436829e-01  4.65391683e+00 -4.65328641e-04  1.00013547e+04 
 1.92436829e-01  4.67651829e+00 -4.67588595e-04  1.00013524e+04 
 1.94436829e-01  4.69838127e+00 -4.69776703e-04  1.00013074e+04 
 1.96436829e-01  4.71950233e+00 -4.71885835e-04  1.00013648e+04 
 1.98436829e-01  4.73987812e+00 -4.73924058e-04  1.00013452e+04 
 2.00436829e-01  4.75950543e+00 -4.75886624e-04  1.00013432e+04 
 2.02436829e-01  4.77838115e+00 -4.77776403e-04  1.00012916e+04 
 2.04436829e-01  4.79650232e+00 -4.79584673e-04  1.00013670e+04 
 2.06436829e-01  4.81386606e+00 -4.81319746e-04  1.00013893e+04 
 2.08436829e-01  4.83046964e+00 -4.82979965e-04  1.00013873e+04 
 2.10436829e-01  4.84631043e+00 -4.84565380e-04  1.00013551e+04 
 2.12436829e-01  4.86138593e+00 -4.86073198e-04  1.00013454e+04 
 2.12686829e-01  4.86321644e+00 -4.86272081e-04  1.00010193e+04 
 2.13186829e-01  4.86684145e+00 -4.86650414e-04  1.00006932e+04 
 2.14186829e-01  4.87394734e+00 -4.87360954e-04  1.00006932e+04 
 2.16186829e-01  4.88758161e+00 -4.88724286e-04  1.00006932e+04 
 2.18186829e-01  4.90044407e+00 -4.90010443e-04  1.00006932e+04 
 2.20186829e-01  4.91253269e+00 -4.91219222e-04  1.00006932e+04 
 2.22186829e-01  4.92384556e+00 -4.92350432e-04  1.00006932e+04 
 2.24186829e-01  4.93438091e+00 -4.93403894e-04  1.00006932e+04 
 2.26186829e-01  4.94413705e+00 -4.94379441e-04  1.00006932e+04 
 2.28186829e-01  4.95311246e+00 -4.95276920e-04  1.00006932e+04 
 2.30186829e-01  4.96130572e+00 -4.96096190e-04  1.00006932e+04 
 2.32186829e-01  4.96871553e+00 -4.96837120e-04  1.00006931e+04 
 2.34186829e-01  4.97534072e+00 -4.97499593e-04  1.00006931e+04 
 2.36186829e-01  4.98118025e+00 -4.98083506e-04  1.00006931e+04 
 2.38186829e-01  4.98623319e+00 -4.98588766e-04  1.00006931e+04 
 2.40186829e-01  4.99049875e+00 -4.99015292e-04  1.00006931e+04 
 2.42186829e-01  4.99397625e+00 -4.99363019e-04  1.00006931e+04 
 2.44186829e-01  4.99666514e+00 -4.99631890e-04  1.00006931e+04 
 2.46186829e-01  4.99856500e+00 -4.99821863e-04  1.00006931e+04 
 2.48186829e-01  4.99967553e+00 -4.99932909e-04  1.00006931e+04 
 2.50186829e-01  4.99999656e+00 -4.99965009e-04  1.00006931e+04 
 2.52186829e-01  4.99952802e+00 -4.99918160e-04  1.00006931e+04 
 2.54186829e-01  4.99827000e+00 -4.99792367e-04  1.00006931e+04 
 2.56186829e-01  4.99622270e+00 -4.99587651e-04  1.00006930e+04 
 2.58186829e-01  4.99338644e+00 -4.99304045e-04  1.00006930e+04 
 2.60186829e-01  4.98976166e+00 -4.98941593e-04  1.00006930e+04 
 2.62186829e-01  4.98534894e+00 -4.98500352e-04  1.00006930e+04 
 2.64186829e-01  4.98014898e+00 -4.97980392e-04  1.00006930e+04 
 2.66186829e-01  4.97416259e+00 -4.97381796e-04  1.00006930e+04 
 2.68186829e-01  4.96739073e+00 -4.96704657e-04  1.00006930e+04 
 2.70186829e-01  4.95983446e+00 -4.95949082e-04  1.00006930e+04 
 2.72186829e-01  4.95149497e+00 -4.95115192e-04  1.00006930e+04 
 2.74186829e-01  4.94237358e+00 -4.94203116e-04  1.00006930e+04 
 2.76186829e-01  4.93247174e+00 -4.93213001e-04  1.00006930e+04 
 2.78186829e-01  4.92179100e+00 -4.92145002e-04  1.00006930e+04 
 2.80186829e-01  4.91033305e+00 -4.90999287e-04  1.00006929e+04 
 2.82186829e-01  4.89809971e+00 -4.89776037e-04  1.00006929e+04 
 2.84186829e-01  4.88509289e+00 -4.88475447e-04  1.00006929e+04 
 2.86186829e-01  4.87131467e+00 -4.87097720e-04  1.00006929e+04 
 2.88186829e-01  4.85676721e+00 -4.85643075e-04  1.00006929e+04 
 2.90186829e-01  4.84145281e+00 -4.84111741e-04  1.00006929e+04 
 2.92186829e-01  4.82537388e+00 -4.82503961e-04  1.00006929e+04 
 2.94186829e-01  4.80853298e+00 -4.80819987e-04  1.00006929e+04 
 2.96186829e-01  4.79093275e+00 -4.79060087e-04  1.00006929e+04 
 2.98186829e-01  4.77257598e+00 -4.77224537e-04  1.00006929e+04 
 3.00186829e-01  4.75346556e+00 -4.75313628e-04  1.00006929e+04 
 3.02186829e-01  4.73360451e+00 -4.73327662e-04  1.00006928e+04 
 3.04186829e-01  4.71299598e+00 -4.71266951e-04  1.00006928e+04 
 3.06186829e-01  4.69164320e+00 -4.69131822e-04  1.00006928e+04 
 3.08186829e-01  4.66954957e+00 -4.66922612e-04  1.00006928e+04 
 3.10186829e-01  4.64671855e+00 -4.64639669e-04  1.00006928e+04 
 3.12186829e-01  4.62315377e+00 -4.62283354e-04  1.00006928e+04 
 3.14186829e-01  4.59885893e+00 -4.59854040e-04  1.00006928e+04 
 3.16186829e-01  4.57383789e+00 -4.57352109e-04  1.00006928e+04 
 3.18186829e-01  4.54809458e+00 -4.54777956e-04  1.00006928e+04 
 3.20186829e-01  4.52163307e+00 -4.52131989e-04  1.00006928e+04 
 3.22186829e-01  4.49445755e+00 -4.49414626e-04  1.00006928e+04 
 3.24186829e-01  4.46657230e+00 -4.46626294e-04  1.00006928e+04 
 3.26186829e-01  4.43798172e+00 -4.43767435e-04  1.00006927e+04 
 3.28186829e-01  4.40869034e+00 -4.40838500e-04  1.00006927e+04 
 3.30186829e-01  4.37870277e+00 -4.37839951e-04  1.00006927e+04 
 3.32186829e-01  4.34802376e+00 -4.34772263e-04  1.00006927e+04 
 3.34186829e-01  4.31665814e+00 -4.31635918e-04  1.00006927e+04 
 3.36186829e-01  4.28461087e+00 -4.28431414e-04  1.00006927e+04 
 3.38186829e-01  4.25188701e+00 -4.25159255e-04  1.00006927e+04 
 3.40186829e-01  4.21849173e+00 -4.21819959e-04  1.00006927e+04 
 3.42186829e-01  4.18443030e+00 -4.18414052e-04  1.00006927e+04 
 3.44186829e-01  4.14970810e+00 -4.14942073e-04  1.00006927e+04 
 3.46186829e-01  4.11433062e+00 -4.11404570e-04  1.00006927e+04 
 3.48186829e-01  4.07830343e+00 -4.07802101e-04  1.00006927e+04 
 3.50186829e-01  4.04163223e+00 -4.04135235e-04  1.00006926e+04 
 3.52186829e-01  4.00432281e+00 -4.00404552e-04  1.00006926e+04 
 3.54186829e-01  3.96638107e+00 -3.96610640e-04  1.00006926e+04 
 3.56186829e-01  3.92781298e+00 -3.92754099e-04  1.00006926e+04 
 3.58186829e-01  3.88862465e+00 -3.88835538e-04  1.00006926e+04 
 3.60186829e-01  3.84882226e+00 -3.84855574e-04  1.00006926e+04 
 3.62186829e-01  3.80841209e+00 -3.80814838e-04  1.00006926e+04 
 3.64186829e-01  3.76740053e+00 -3.76713967e-04  1.00006926e+04 
 3.66186829e-01  3.72579406e+00 -3.72553608e-04  1.00006926e+04 
 3.68186829e-01  3.68359924e+00 -3.68334418e-04  1.00006926e+04 
 3.70186829e-01  3.64082274e+00 -3.64057064e-04  1.00006926e+04 
 3.72186829e-01  3.59747131e+00 -3.59722222e-04  1.00006925e+04 
 3.74186829e-01  3.55355179e+00 -3.55330575e-04  1.00006925e+04 
 3.76186829e-01  3.50907113e+00 -3.50882817e-04  1.00006925e+04 
 3.78186829e-01  3.46403635e+00 -3.46379651e-04  1.00006925e+04 
 3.80186829e-01  3.41845456e+00 -3.41821787e-04  1.00006925e+04 
 3.82186829e-01  3.37233295e+00 -3.37209946e-04  1.00006925e+04 
 3.84186829e-01  3.32567881e+00 -3.32544856e-04  1.00006925e+04 
 3.86186829e-01  3.27849951e+00 -3.27827252e-04  1.00006925e+04 
 3.88186829e-01  3.23080249e+00 -3.23057881e-04  1.00006925e+04 
 3.90186829e-01  3.18259529e+00 -3.18237496e-04  1.00006925e+04 
 3.92186829e-01  3.13388553e+00 -3.13366857e-04  1.00006925e+04 
 3.94186829e-01  3.08468089e+00 -3.08446733e-04  1.00006925e+04 
 3.96186829e-01  3.03498914e+00 -3.03477903e-04  1.00006924e+04 
 3.98186829e-01  2.98481813e+00 -2.98461149e-04  1.00006924e+04 
 4.00186829e-01  2.93417578e+00 -2.93397266e-04  1.00006924e+04 
 4.02186829e-01  2.88307010e+00 -2.88287051e-04  1.00006924e+04 
 4.04186829e-01  2.83150914e+00 -2.83131313e-04  1.00006924e+04 
 4.06186829e-01  2.77950106e+00 -2.77930864e-04  1.00006924e+04 
 4.08186829e-01  2.72705406e+00 -2.72686528e-04  1.00006924e+04 
 4.10186829e-01  2.67417642e+00 -2.67399131e-04  1.00006924e+04 
 4.12186829e-01  2.62087651e+00 -2.62069508e-04  1.00006924e+04 
 4.14186829e-01  2.56716272e+00 -2.56698502e-04  1.00006924e+04 
 4.16186829e-01  2.51304355e+00 -2.51286960e-04  1.00006924e+04 
 4.18186829e-01  2.45852755e+00 -2.45835736e-04  1.00006924e+04 
 4.20186829e-01  2.40362331e+00 -2.40345693e-04  1.00006923e+04 
 4.22186829e-01  2.34833951e+00 -2.34817696e-04  1.00006923e+04 
 4.24186829e-01  2.29268488e+00 -2.29252619e-04  1.00006923e+04 
 4.26186829e-01  2.23666821e+00 -2.23651340e-04  1.00006923e+04 
 4.28186829e-01  2.18029835e+00 -2.18014744e-04  1.00006923e+04 
 4.30186829e-01  2.12358419e+00 -2.12343721e-04  1.00006923e+04 
 4.32186829e-01  2.06653469e+00 -2.06639166e-04  1.00006923e+04 
 4.34186829e-01  2.00915886e+00 -2.00901980e-04  1.00006923e+04 
 4.36186829e-01  1.95146577e+00 -1.95133070e-04  1.00006923e+04 
 4.38186829e-01  1.89346451e+00 -1.89333346e-04  1.00006923e+04 
 4.40186829e-01  1.83516426e+00 -1.83503724e-04  1.00006923e+04 
 4.42186829e-01  1.77657421e+00 -1.77645125e-04  1.00006923e+04 
 4.44186829e-01  1.71770361e+00 -1.71758473e-04  1.00006922e+04 
 4.46186829e-01  1.65856178e+00 -1.65844699e-04  1.00006922e+04 
 4.48186829e-01  1.59915804e+00 -1.59904736e-04  1.00006922e+04 
 4.50186829e-01  1.53950177e+00 -1.53939522e-04  1.00006922e+04 
 4.52186829e-01  1.47960239e+00 -1.47950000e-04  1.00006922e+04 
 4.54186829e-01  1.41946937e+00 -1.41937114e-04  1.00006922e+04 
 4.56186829e-01  1.35911220e+00 -1.35901815e-04  1.00006922e+04 
 4.58186829e-01  1.29854041e+00 -1.29845055e-04  1.00006922e+04 
 4.60186829e-01  1.23776357e+00 -1.23767791e-04  1.00006922e+04 
 4.62186829e-01  1.17679127e+00 -1.17670983e-04  1.00006922e+04 
 4.64186829e-01  1.11563313e+00 -1.11555593e-04  1.00006922e+04 
 4.66186829e-01  1.05429883e+00 -1.05422587e-04  1.00006922e+04 
 4.68186829e-01  9.92798044e-01 -9.92729343e-05  1.00006921e+04 
 4.70186829e-01  9.31140481e-01 -9.31076047e-05  1.00006921e+04 
 4.72186829e-01  8.69335880e-01 -8.69275724e-05  1.00006921e+04 
 4.74186829e-01  8.07394001e-01 -8.07338132e-05  1.00006921e+04 
 4.76186829e-01  7.45324626e-01 -7.45273052e-05  1.00006921e+04 
 4.78186829e-01  6.83137555e-01 -6.83090285e-05  1.00006921e+04 
 4.80186829e-01  6.20842608e-01 -6.20799649e-05  1.00006921e+04 
 4.82186829e-01  5.58449623e-01 -5.58410982e-05  1.00006921e+04 
 4.84186829e-01  4.95968453e-01 -4.95934136e-05  1.00006921e+04 
 4.86186829e-01  4.33408964e-01 -4.33378975e-05  1.00006921e+04 
 4.88186829e-01  3.70781034e-01 -3.70755379e-05  1.00006921e+04 
 4.90186829e-01  3.08094553e-01 -3.08073236e-05  1.00006921e+04 
 4.92186829e-01  2.45359421e-01 -2.45342445e-05  1.00006920e+04 
 4.94186829e-01  1.82585544e-01 -1.82572911e-05  1.00006920e+04 
 4.96186829e-01  1.19782834e-01 -1.19774547e-05  1.00006920e+04 
 4.98186829e-01  5.69612096e-02 -5.69572687e-06  1.00006920e+04 
 5.00186829e-01 -5.86940992e-03  5.86900728e-07  1.00006861e+04 
 5.02186829e-01 -6.86991026e-02  6.86949022e-06  1.00006116e+04 
 5.04186829e-01 -1.31517947e-01  1.31512539e-05  1.00004113e+04 
 5.06186829e-01 -1.94316023e-01  1.94314363e-05  1.00000855e+04 
 5.08186829e-01 -2.57083414e-01  2.57089990e-05  9.99963412e+03 
 5.10186829e-01 -3.19810209e-01  3.19836746e-05  9.99905723e+03 
 5.12186829e-01 -3.82486502e-01  3.82545034e-05  9.99835493e+03 
 5.14186829e-01 -4.45102397e-01  4.45207300e-05  9.99752734e+03 
 5.16186829e-01 -5.07648004e-01  5.07815992e-05  9.99657459e+03 
 5.18186829e-01 -5.70113448e-01  5.70363558e-05  9.99549682e+03 
 5.20186829e-01 -6.32488864e-01  6.32842444e-05  9.99429422e+03 
 5.22186829e-01 -6.94764403e-01  6.95245097e-05  9.99296695e+03 
 5.24186829e-01 -7.56930230e-01  7.57563966e-05  9.99151525e+03 
 5.26186829e-01 -8.18976530e-01  8.19791497e-05  9.98993934e+03 
 5.28186829e-01 -8.80893504e-01  8.81920138e-05  9.98823947e+03 
 5.30186829e-01 -9.42671374e-01  9.43942336e-05  9.98641589e+03 
 5.32186829e-01 -1.00430039e+00  1.00585054e-04  9.98446892e+03 
 5.34186829e-01 -1.06577081e+00  1.06763719e-04  9.98239884e+03 
 5.36186829e-01 -1.12707293e+00  1.12929475e-04  9.98020599e+03 
 5.38186829e-01 -1.18819708e+00  1.19081565e-04  9.97789072e+03 
 5.40186829e-01 -1.24913359e+00  1.25219236e-04  9.97545339e+03 
