 time            vin             i(v1)           l0             
 2.00000000e-05  6.28318529e-04 -1.25663706e-07  5.00000000e+03 
 4.00000000e-05  1.25663705e-03 -2.51327411e-07  5.00000000e+03 
 8.00000000e-05  2.51327402e-03 -5.02654806e-07  5.00000000e+03 
 1.60000000e-04  5.02654740e-03 -1.00530948e-06  5.00000000e+03 
 3.20000000e-04  1.00530897e-02 -2.01061795e-06  5.00000000e+03 
 6.40000000e-04  2.01061388e-02 -4.02122777e-06  5.00000001e+03 
 1.28000000e-03  4.02119525e-02 -8.04239048e-06  5.00000005e+03 
 2.00000000e-03  6.28301994e-02 -1.25660397e-05  5.00000013e+03 
 2.12800000e-03  6.68510998e-02 -1.33702196e-05  5.00000014e+03 
 2.38400000e-03  7.48927681e-02 -1.49785532e-05  5.00000018e+03 
 2.89600000e-03  9.09755027e-02 -1.81950997e-05  5.00000027e+03 
 3.92000000e-03  1.23137981e-01 -2.46275942e-05  5.00000049e+03 
 5.92000000e-03  1.85939401e-01 -3.71878737e-05  5.00000111e+03 
 7.92000000e-03  2.48711460e-01 -4.97422746e-05  5.00000198e+03 
 9.92000000e-03  3.11444243e-01 -6.22888132e-05  5.00000310e+03 
 1.19200000e-02  3.74127847e-01 -7.48255062e-05  5.00000447e+03 
 1.39200000e-02  4.36752371e-01 -8.73503721e-05  5.00000609e+03 
 1.59200000e-02  4.99307926e-01 -9.98614314e-05  5.00000796e+03 
 1.79200000e-02  5.61784636e-01 -1.12356706e-04  5.00001009e+03 
 1.99200000e-02  6.24172633e-01 -1.24834222e-04  5.00001246e+03 
 2.19200000e-02  6.86462065e-01 -1.37292006e-04  5.00001509e+03 
 2.39200000e-02  7.48643098e-01 -1.49728089e-04  5.00001797e+03 
 2.59200000e-02  8.10705911e-01 -1.62140507e-04  5.00002109e+03 
 2.79200000e-02  8.72640704e-01 -1.74527297e-04  5.00002445e+03 
 2.99200000e-02  9.34437698e-01 -1.86886500e-04  5.00002807e+03 
 3.19200000e-02  9.96087132e-01 -1.99216165e-04  5.00003193e+03 
 3.39200000e-02  1.05757927e+00 -2.11514341e-04  5.00003605e+03 
 3.59200000e-02  1.11890441e+00 -2.23779085e-04  5.00004041e+03 
 3.79200000e-02  1.18005286e+00 -2.36008460e-04  5.00004501e+03 
 3.99200000e-02  1.24101496e+00 -2.48200531e-04  5.00004986e+03 
 4.19200000e-02  1.30178110e+00 -2.60353372e-04  5.00005495e+03 
 4.39200000e-02  1.36234167e+00 -2.72465063e-04  5.00006028e+03 
 4.59200000e-02  1.42268710e+00 -2.84533688e-04  5.00006586e+03 
 4.79200000e-02  1.48280788e+00 -2.96557341e-04  5.00007168e+03 
 4.99200000e-02  1.54269451e+00 -3.08534122e-04  5.00007773e+03 
 5.19200000e-02  1.60233753e+00 -3.20462137e-04  5.00008402e+03 
 5.39200000e-02  1.66172752e+00 -3.32339502e-04  5.00009055e+03 
 5.59200000e-02  1.72085510e+00 -3.44164339e-04  5.00009732e+03 
 5.79200000e-02  1.77971094e+00 -3.55934780e-04  5.00010433e+03 
 5.99200000e-02  1.83828575e+00 -3.67648965e-04  5.00011157e+03 
 6.19200000e-02  1.89657027e+00 -3.79305041e-04  5.00011905e+03 
 6.39200000e-02  1.95455529e+00 -3.90901169e-04  5.00012675e+03 
 6.59200000e-02  2.01223167e+00 -4.02435514e-04  5.00013469e+03 
 6.79200000e-02  2.06959030e+00 -4.13906254e-04  5.00014286e+03 
 6.99200000e-02  2.12662211e+00 -4.25311577e-04  5.00015126e+03 
 7.19200000e-02  2.18331811e+00 -4.36649680e-04  5.00015988e+03 
 7.39200000e-02  2.23966933e+00 -4.47918772e-04  5.00016874e+03 
 7.59200000e-02  2.29566688e+00 -4.59117071e-04  5.00017782e+03 
 7.79200000e-02  2.35130192e+00 -4.70242809e-04  5.00018713e+03 
 7.99200000e-02  2.40656567e+00 -4.81294228e-04  5.00019665e+03 
 8.19200000e-02  2.46144939e+00 -4.92269580e-04  5.00020640e+03 
 8.39200000e-02  2.51594441e+00 -5.03167134e-04  5.00021636e+03 
 8.59200000e-02  2.57004214e+00 -5.13985167e-04  5.00022653e+03 
 8.79200000e-02  2.62373404e+00 -5.24721968e-04  5.00023693e+03 
 8.99200000e-02  2.67701161e+00 -5.35375841e-04  5.00024755e+03 
 9.19200000e-02  2.72986645e+00 -5.45945104e-04  5.00025837e+03 
 9.39200000e-02  2.78229022e+00 -5.56428088e-04  5.00026940e+03 
 9.59200000e-02  2.83427462e+00 -5.66823136e-04  5.00028064e+03 
 9.79200000e-02  2.88581147e+00 -5.77128605e-04  5.00029209e+03 
 9.99200000e-02  2.93689261e+00 -5.87342868e-04  5.00030374e+03 
 1.01920000e-01  2.98750998e+00 -5.97464311e-04  5.00031560e+03 
 1.03920000e-01  3.03765559e+00 -6.07491334e-04  5.00032767e+03 
 1.05920000e-01  3.08732152e+00 -6.17422354e-04  5.00033993e+03 
 1.07920000e-01  3.13649992e+00 -6.27255803e-04  5.00035240e+03 
 1.09920000e-01  3.18518304e+00 -6.36990128e-04  5.00036506e+03 
 1.11920000e-01  3.23336317e+00 -6.46623790e-04  5.00037790e+03 
 1.13920000e-01  3.28103272e+00 -6.56155269e-04  5.00039094e+03 
 1.15920000e-01  3.32818416e+00 -6.65583059e-04  5.00040417e+03 
 1.17920000e-01  3.37481004e+00 -6.74905671e-04  5.00041758e+03 
 1.19920000e-01  3.42090300e+00 -6.84121632e-04  5.00043118e+03 
 1.21920000e-01  3.46645576e+00 -6.93229485e-04  5.00044498e+03 
 1.23920000e-01  3.51146112e+00 -7.02227795e-04  5.00045895e+03 
 1.25920000e-01  3.55591198e+00 -7.11115140e-04  5.00047310e+03 
 1.27920000e-01  3.59980133e+00 -7.19890115e-04  5.00048743e+03 
 1.29920000e-01  3.64312222e+00 -7.28551336e-04  5.00050193e+03 
 1.31920000e-01  3.68586782e+00 -7.37097436e-04  5.00051661e+03 
 1.33920000e-01  3.72803139e+00 -7.45527064e-04  5.00053145e+03 
 1.35920000e-01  3.76960625e+00 -7.53838892e-04  5.00054644e+03 
 1.37920000e-01  3.81058584e+00 -7.62031605e-04  5.00056161e+03 
 1.39920000e-01  3.85096371e+00 -7.70103908e-04  5.00057694e+03 
 1.41920000e-01  3.89073346e+00 -7.78054529e-04  5.00059244e+03 
 1.43920000e-01  3.92988881e+00 -7.85882214e-04  5.00060809e+03 
 1.45920000e-01  3.96842360e+00 -7.93585725e-04  5.00062390e+03 
 1.47920000e-01  4.00633172e+00 -8.01163845e-04  5.00063986e+03 
 1.49920000e-01  4.04360720e+00 -8.08615380e-04  5.00065598e+03 
 1.51920000e-01  4.08024414e+00 -8.15939154e-04  5.00067225e+03 
 1.53920000e-01  4.11623677e+00 -8.23134010e-04  5.00068866e+03 
 1.55920000e-01  4.15157939e+00 -8.30198812e-04  5.00070521e+03 
 1.57920000e-01  4.18626643e+00 -8.37132447e-04  5.00072191e+03 
 1.59920000e-01  4.22029241e+00 -8.43933822e-04  5.00073873e+03 
 1.61920000e-01  4.25365196e+00 -8.50601860e-04  5.00075570e+03 
 1.63920000e-01  4.28633981e+00 -8.57135511e-04  5.00077280e+03 
 1.65920000e-01  4.31835080e+00 -8.63533744e-04  5.00079002e+03 
 1.67920000e-01  4.34967986e+00 -8.69795549e-04  5.00080737e+03 
 1.69920000e-01  4.38032207e+00 -8.75919938e-04  5.00082486e+03 
 1.71920000e-01  4.41027257e+00 -8.81905946e-04  5.00084245e+03 
 1.73920000e-01  4.43952663e+00 -8.87752629e-04  5.00086017e+03 
 1.75920000e-01  4.46807965e+00 -8.93459064e-04  5.00087799e+03 
 1.77920000e-01  4.49592710e+00 -8.99024351e-04  5.00089593e+03 
 1.79920000e-01  4.52306459e+00 -9.04447611e-04  5.00091399e+03 
 1.81920000e-01  4.54948784e+00 -9.09727991e-04  5.00093215e+03 
 1.83920000e-01  4.57519267e+00 -9.14864656e-04  5.00095042e+03 
 1.84170000e-01  4.57835506e+00 -9.15496575e-04  5.00095271e+03 
 1.84670000e-01  4.58464593e+00 -9.16753671e-04  5.00095730e+03 
 1.85670000e-01  4.59709188e+00 -9.19240698e-04  5.00096649e+03 
 1.85701250e-01  4.59747789e+00 -9.19317828e-04  5.00096677e+03 
 1.85763750e-01  4.59824939e+00 -9.19471992e-04  5.00096735e+03 
 1.85888750e-01  4.59979025e+00 -9.19779894e-04  5.00096850e+03 
 1.85892656e-01  4.59983836e+00 -9.19789506e-04  5.00096854e+03 
 1.85900469e-01  4.59993456e+00 -9.19808730e-04  5.00096861e+03 
 1.85902422e-01  4.59995861e+00 -9.19813536e-04  5.00096863e+03 
 1.85906328e-01  4.60000671e+00 -8.95718558e-04  5.13202244e+03 
 1.85912349e-01  4.60008083e+00 -5.92232395e-04  7.76735773e+03 
 1.85918415e-01  4.60015551e+00 -4.59954366e-04  1.00013300e+04 
 1.85925319e-01  4.60024050e+00 -4.59948017e-04  1.00016532e+04 
 1.85933541e-01  4.60034170e+00 -4.59956285e-04  1.00016934e+04 
 1.85942275e-01  4.60044919e+00 -4.59966255e-04  1.00017103e+04 
 1.85959744e-01  4.60066412e+00 -4.59987382e-04  1.00017182e+04 
 1.85994680e-01  4.60109383e+00 -4.60030809e-04  1.00017081e+04 
 1.86064554e-01  4.60195257e+00 -4.60118785e-04  1.00016621e+04 
 1.86204301e-01  4.60366740e+00 -4.60295851e-04  1.00015401e+04 
 1.86483795e-01  4.60708641e+00 -4.60644162e-04  1.00013997e+04 
 1.86553669e-01  4.60793894e+00 -4.60745344e-04  1.00010538e+04 
 1.86693416e-01  4.60964134e+00 -4.60931508e-04  1.00007079e+04 
 1.86972910e-01  4.61303548e+00 -4.61270898e-04  1.00007079e+04 
 1.87531898e-01  4.61978106e+00 -4.61945409e-04  1.00007079e+04 
 1.88649875e-01  4.63310118e+00 -4.63277327e-04  1.00007079e+04 
 1.90649875e-01  4.65635944e+00 -4.65602989e-04  1.00007079e+04 
 1.92649875e-01  4.67888240e+00 -4.67855126e-04  1.00007079e+04 
 1.94649875e-01  4.70066652e+00 -4.70033384e-04  1.00007079e+04 
 1.96649875e-01  4.72170834e+00 -4.72137418e-04  1.00007079e+04 
 1.98649875e-01  4.74200455e+00 -4.74166896e-04  1.00007078e+04 
 2.00649875e-01  4.76155194e+00 -4.76121498e-04  1.00007078e+04 
 2.02649875e-01  4.78034743e+00 -4.78000915e-04  1.00007078e+04 
 2.04649875e-01  4.79838805e+00 -4.79804849e-04  1.00007078e+04 
 2.06649875e-01  4.81567094e+00 -4.81533017e-04  1.00007078e+04 
 2.08649875e-01  4.83219339e+00 -4.83185146e-04  1.00007078e+04 
 2.10649875e-01  4.84795278e+00 -4.84760974e-04  1.00007077e+04 
 2.12649875e-01  4.86294661e+00 -4.86260252e-04  1.00007077e+04 
 2.14649875e-01  4.87717254e+00 -4.87682744e-04  1.00007077e+04 
 2.16649875e-01  4.89062830e+00 -4.89028226e-04  1.00007077e+04 
 2.18649875e-01  4.90331177e+00 -4.90296484e-04  1.00007077e+04 
 2.20649875e-01  4.91522095e+00 -4.91487319e-04  1.00007077e+04 
 2.22649875e-01  4.92635397e+00 -4.92600543e-04  1.00007077e+04 
 2.24649875e-01  4.93670905e+00 -4.93635979e-04  1.00007076e+04 
 2.26649875e-01  4.94628457e+00 -4.94593464e-04  1.00007076e+04 
 2.28649875e-01  4.95507902e+00 -4.95472847e-04  1.00007076e+04 
 2.30649875e-01  4.96309100e+00 -4.96273989e-04  1.00007076e+04 
 2.32649875e-01  4.97031925e+00 -4.96996764e-04  1.00007076e+04 
 2.34649875e-01  4.97676263e+00 -4.97641057e-04  1.00007076e+04 
 2.36649875e-01  4.98242013e+00 -4.98206767e-04  1.00007075e+04 
 2.38649875e-01  4.98729084e+00 -4.98693804e-04  1.00007075e+04 
 2.40649875e-01  4.99137400e+00 -4.99102092e-04  1.00007075e+04 
 2.42649875e-01  4.99466896e+00 -4.99431566e-04  1.00007075e+04 
 2.44649875e-01  4.99717521e+00 -4.99682174e-04  1.00007075e+04 
 2.46649875e-01  4.99889234e+00 -4.99853876e-04  1.00007075e+04 
 2.48649875e-01  4.99982009e+00 -4.99946645e-04  1.00007075e+04 
 2.50649875e-01  4.99995832e+00 -4.99960467e-04  1.00007074e+04 
 2.52649875e-01  4.99930699e+00 -4.99895340e-04  1.00007074e+04 
 2.54649875e-01  4.99786621e+00 -4.99751273e-04  1.00007074e+04 
 2.56649875e-01  4.99563621e+00 -4.99528290e-04  1.00007074e+04 
 2.58649875e-01  4.99261735e+00 -4.99226425e-04  1.00007074e+04 
 2.60649875e-01  4.98881009e+00 -4.98845727e-04  1.00007074e+04 
 2.62649875e-01  4.98421504e+00 -4.98386255e-04  1.00007074e+04 
 2.64649875e-01  4.97883292e+00 -4.97848083e-04  1.00007073e+04 
 2.66649875e-01  4.97266459e+00 -4.97231294e-04  1.00007073e+04 
 2.68649875e-01  4.96571102e+00 -4.96535987e-04  1.00007073e+04 
 2.70649875e-01  4.95797330e+00 -4.95762270e-04  1.00007073e+04 
 2.72649875e-01  4.94945267e+00 -4.94910268e-04  1.00007073e+04 
 2.74649875e-01  4.94015045e+00 -4.93980113e-04  1.00007073e+04 
 2.76649875e-01  4.93006813e+00 -4.92971953e-04  1.00007072e+04 
 2.78649875e-01  4.91920730e+00 -4.91885947e-04  1.00007072e+04 
 2.80649875e-01  4.90756966e+00 -4.90722267e-04  1.00007072e+04 
 2.82649875e-01  4.89515707e+00 -4.89481095e-04  1.00007072e+04 
 2.84649875e-01  4.88197147e+00 -4.88162629e-04  1.00007072e+04 
 2.86649875e-01  4.86801495e+00 -4.86767077e-04  1.00007072e+04 
 2.88649875e-01  4.85328971e+00 -4.85294658e-04  1.00007072e+04 
 2.90649875e-01  4.83779809e+00 -4.83745606e-04  1.00007071e+04 
 2.92649875e-01  4.82154252e+00 -4.82120165e-04  1.00007071e+04 
 2.94649875e-01  4.80452557e+00 -4.80418591e-04  1.00007071e+04 
 2.96649875e-01  4.78674993e+00 -4.78641154e-04  1.00007071e+04 
 2.98649875e-01  4.76821841e+00 -4.76788133e-04  1.00007071e+04 
 3.00649875e-01  4.74893393e+00 -4.74859822e-04  1.00007071e+04 
 3.02649875e-01  4.72889954e+00 -4.72856526e-04  1.00007071e+04 
 3.04649875e-01  4.70811841e+00 -4.70778560e-04  1.00007070e+04 
 3.06649875e-01  4.68659380e+00 -4.68626252e-04  1.00007070e+04 
 3.08649875e-01  4.66432913e+00 -4.66399943e-04  1.00007070e+04 
 3.10649875e-01  4.64132791e+00 -4.64099984e-04  1.00007070e+04 
 3.12649875e-01  4.61759376e+00 -4.61726738e-04  1.00007070e+04 
 3.14649875e-01  4.59313045e+00 -4.59280580e-04  1.00007070e+04 
 3.16649875e-01  4.56794183e+00 -4.56761897e-04  1.00007069e+04 
 3.18649875e-01  4.54203187e+00 -4.54171085e-04  1.00007069e+04 
 3.20649875e-01  4.51540468e+00 -4.51508555e-04  1.00007069e+04 
 3.22649875e-01  4.48806445e+00 -4.48774726e-04  1.00007069e+04 
 3.24649875e-01  4.46001551e+00 -4.45970030e-04  1.00007069e+04 
 3.26649875e-01  4.43126227e+00 -4.43094910e-04  1.00007069e+04 
 3.28649875e-01  4.40180929e+00 -4.40149821e-04  1.00007069e+04 
 3.30649875e-01  4.37166121e+00 -4.37135227e-04  1.00007068e+04 
 3.32649875e-01  4.34082280e+00 -4.34051604e-04  1.00007068e+04 
 3.34649875e-01  4.30929892e+00 -4.30899440e-04  1.00007068e+04 
 3.36649875e-01  4.27709455e+00 -4.27679231e-04  1.00007068e+04 
 3.38649875e-01  4.24421478e+00 -4.24391487e-04  1.00007068e+04 
 3.40649875e-01  4.21066480e+00 -4.21036726e-04  1.00007068e+04 
 3.42649875e-01  4.17644990e+00 -4.17615479e-04  1.00007068e+04 
 3.44649875e-01  4.14157550e+00 -4.14128286e-04  1.00007067e+04 
 3.46649875e-01  4.10604709e+00 -4.10575697e-04  1.00007067e+04 
 3.48649875e-01  4.06987029e+00 -4.06958273e-04  1.00007067e+04 
 3.50649875e-01  4.03305081e+00 -4.03276586e-04  1.00007067e+04 
 3.52649875e-01  3.99559446e+00 -3.99531216e-04  1.00007067e+04 
 3.54649875e-01  3.95750717e+00 -3.95722756e-04  1.00007067e+04 
 3.56649875e-01  3.91879494e+00 -3.91851807e-04  1.00007067e+04 
 3.58649875e-01  3.87946388e+00 -3.87918980e-04  1.00007066e+04 
 3.60649875e-01  3.83952021e+00 -3.83924896e-04  1.00007066e+04 
 3.62649875e-01  3.79897024e+00 -3.79870186e-04  1.00007066e+04 
 3.64649875e-01  3.75782037e+00 -3.75755490e-04  1.00007066e+04 
 3.66649875e-01  3.71607709e+00 -3.71581458e-04  1.00007066e+04 
 3.68649875e-01  3.67374700e+00 -3.67348748e-04  1.00007066e+04 
 3.70649875e-01  3.63083679e+00 -3.63058030e-04  1.00007066e+04 
 3.72649875e-01  3.58735322e+00 -3.58709981e-04  1.00007065e+04 
 3.74649875e-01  3.54330317e+00 -3.54305288e-04  1.00007065e+04 
 3.76649875e-01  3.49869359e+00 -3.49844645e-04  1.00007065e+04 
 3.78649875e-01  3.45353152e+00 -3.45328758e-04  1.00007065e+04 
 3.80649875e-01  3.40782410e+00 -3.40758340e-04  1.00007065e+04 
 3.82649875e-01  3.36157855e+00 -3.36134112e-04  1.00007065e+04 
 3.84649875e-01  3.31480217e+00 -3.31456804e-04  1.00007064e+04 
 3.86649875e-01  3.26750234e+00 -3.26727156e-04  1.00007064e+04 
 3.88649875e-01  3.21968653e+00 -3.21945913e-04  1.00007064e+04 
 3.90649875e-01  3.17136230e+00 -3.17113832e-04  1.00007064e+04 
 3.92649875e-01  3.12253727e+00 -3.12231674e-04  1.00007064e+04 
 3.94649875e-01  3.07321916e+00 -3.07300212e-04  1.00007064e+04 
 3.96649875e-01  3.02341575e+00 -3.02320223e-04  1.00007064e+04 
 3.98649875e-01  2.97313491e+00 -2.97292494e-04  1.00007063e+04 
 4.00649875e-01  2.92238457e+00 -2.92217820e-04  1.00007063e+04 
 4.02649875e-01  2.87117276e+00 -2.87097001e-04  1.00007063e+04 
 4.04649875e-01  2.81950756e+00 -2.81930846e-04  1.00007063e+04 
 4.06649875e-01  2.76739712e+00 -2.76720170e-04  1.00007063e+04 
 4.08649875e-01  2.71484968e+00 -2.71465798e-04  1.00007063e+04 
 4.10649875e-01  2.66187353e+00 -2.66168557e-04  1.00007063e+04 
 4.12649875e-01  2.60847704e+00 -2.60829286e-04  1.00007062e+04 
 4.14649875e-01  2.55466865e+00 -2.55448827e-04  1.00007062e+04 
 4.16649875e-01  2.50045684e+00 -2.50028029e-04  1.00007062e+04 
 4.18649875e-01  2.44585018e+00 -2.44567749e-04  1.00007062e+04 
 4.20649875e-01  2.39085729e+00 -2.39068849e-04  1.00007062e+04 
 4.22649875e-01  2.33548686e+00 -2.33532197e-04  1.00007062e+04 
 4.24649875e-01  2.27974763e+00 -2.27958667e-04  1.00007062e+04 
 4.26649875e-01  2.22364840e+00 -2.22349141e-04  1.00007061e+04 
 4.28649875e-01  2.16719802e+00 -2.16704503e-04  1.00007061e+04 
 4.30649875e-01  2.11040543e+00 -2.11025644e-04  1.00007061e+04 
 4.32649875e-01  2.05327957e+00 -2.05313462e-04  1.00007061e+04 
 4.34649875e-01  1.99582948e+00 -1.99568859e-04  1.00007061e+04 
 4.36649875e-01  1.93806423e+00 -1.93792742e-04  1.00007061e+04 
 4.38649875e-01  1.87999293e+00 -1.87986022e-04  1.00007061e+04 
 4.40649875e-01  1.82162476e+00 -1.82149617e-04  1.00007060e+04 
 4.42649875e-01  1.76296893e+00 -1.76284449e-04  1.00007060e+04 
 4.44649875e-01  1.70403471e+00 -1.70391443e-04  1.00007060e+04 
 4.46649875e-01  1.64483141e+00 -1.64471531e-04  1.00007060e+04 
 4.48649875e-01  1.58536836e+00 -1.58525646e-04  1.00007060e+04 
 4.50649875e-01  1.52565497e+00 -1.52554729e-04  1.00007060e+04 
 4.52649875e-01  1.46570066e+00 -1.46559721e-04  1.00007060e+04 
 4.54649875e-01  1.40551490e+00 -1.40541570e-04  1.00007059e+04 
 4.56649875e-01  1.34510719e+00 -1.34501225e-04  1.00007059e+04 
 4.58649875e-01  1.28448707e+00 -1.28439642e-04  1.00007059e+04 
 4.60649875e-01  1.22366412e+00 -1.22357776e-04  1.00007059e+04 
 4.62649875e-01  1.16264794e+00 -1.16256588e-04  1.00007059e+04 
 4.64649875e-01  1.10144816e+00 -1.10137043e-04  1.00007059e+04 
 4.66649875e-01  1.04007445e+00 -1.04000105e-04  1.00007059e+04 
 4.68649875e-01  9.78536497e-01 -9.78467443e-05  1.00007058e+04 
 4.70649875e-01  9.16844025e-01 -9.16779325e-05  1.00007058e+04 
 4.72649875e-01  8.55006772e-01 -8.54946437e-05  1.00007058e+04 
 4.74649875e-01  7.93034504e-01 -7.92978543e-05  1.00007058e+04 
 4.76649875e-01  7.30937006e-01 -7.30885429e-05  1.00007058e+04 
 4.78649875e-01  6.68724086e-01 -6.68676899e-05  1.00007058e+04 
 4.80649875e-01  6.06405565e-01 -6.06362777e-05  1.00007058e+04 
 4.82649875e-01  5.43991287e-01 -5.43952903e-05  1.00007057e+04 
 4.84649875e-01  4.81491105e-01 -4.81457132e-05  1.00007057e+04 
 4.86649875e-01  4.18914891e-01 -4.18885334e-05  1.00007057e+04 
 4.88649875e-01  3.56272525e-01 -3.56247388e-05  1.00007057e+04 
 4.90649875e-01  2.93573900e-01 -2.93553187e-05  1.00007057e+04 
 4.92649875e-01  2.30828916e-01 -2.30812630e-05  1.00007057e+04 
 4.94649875e-01  1.68047481e-01 -1.68035625e-05  1.00007057e+04 
 4.96649875e-01  1.05239510e-01 -1.05232085e-05  1.00007056e+04 
 4.98649875e-01  4.24149202e-02 -4.24119280e-06  1.00007056e+04 
 5.00649875e-01 -2.04163674e-02  2.04149272e-06  1.00007056e+04 
 5.02649875e-01 -8.32444311e-02  8.32385592e-06  1.00007054e+04 
 5.04649875e-01 -1.46059349e-01  1.46049053e-05  1.00007049e+04 
 5.06649875e-01 -2.08851203e-01  2.08836496e-05  1.00007042e+04 
 5.08649875e-01 -2.71610077e-01  2.71590976e-05  1.00007032e+04 
 5.10649875e-01 -3.34326061e-01  3.34302590e-05  1.00007020e+04 
 5.12649875e-01 -3.96989250e-01  3.96961439e-05  1.00007005e+04 
 5.14649875e-01 -4.59589751e-01  4.59557633e-05  1.00006988e+04 
 5.16649875e-01 -5.22117676e-01  5.22081292e-05  1.00006968e+04 
 5.18649875e-01 -5.84563154e-01  5.84522548e-05  1.00006945e+04 
 5.20649875e-01 -6.46916322e-01  6.46871545e-05  1.00006921e+04 
 5.22649875e-01 -7.09167334e-01  7.09118442e-05  1.00006893e+04 
 5.24649875e-01 -7.71306361e-01  7.71253414e-05  1.00006864e+04 
 5.26649875e-01 -8.33323590e-01  8.33266653e-05  1.00006832e+04 
 5.28649875e-01 -8.95209227e-01  8.95148372e-05  1.00006797e+04 
 5.30649875e-01 -9.56953500e-01  9.56888803e-05  1.00006760e+04 
 5.32649875e-01 -1.01854666e+00  1.01847820e-04  1.00006720e+04 
 5.34649875e-01 -1.07997898e+00  1.07990684e-04  1.00006678e+04 
 5.36649875e-01 -1.14124076e+00  1.14116504e-04  1.00006634e+04 
 5.38649875e-01 -1.20232232e+00  1.20224311e-04  1.00006587e+04 
