 time            vin             i(v1)           l0             
 2.00000000e-05  6.28318529e-04 -1.25660548e-07  5.00012566e+03 
 4.00000000e-05  1.25663705e-03 -2.51314778e-07  5.00037699e+03 
 8.00000000e-05  2.51327402e-03 -5.02579016e-07  5.00113097e+03 
 1.60000000e-04  5.02654740e-03 -1.00477908e-06  5.00414690e+03 
 3.20000000e-04  1.00530897e-02 -2.00412035e-06  5.01621061e+03 
 6.40000000e-04  2.01061388e-02 -3.97004173e-06  5.06446538e+03 
 1.28000000e-03  4.02119525e-02 -7.64851748e-06  5.25748327e+03 
 2.00000000e-03  6.28301994e-02 -1.11629964e-05  5.62843502e+03 
 2.12800000e-03  6.68510998e-02 -1.17076752e-05  5.71400442e+03 
 2.38400000e-03  7.48927681e-02 -1.27035153e-05  5.89543657e+03 
 2.89600000e-03  9.09755027e-02 -1.43947229e-05  6.32005935e+03 
 3.92000000e-03  1.23137981e-01 -1.66036492e-05  7.41632039e+03 
 4.17000000e-03  1.30989425e-01 -1.69154070e-05  7.74379395e+03 
 4.67000000e-03  1.46691325e-01 -1.73846171e-05  8.43799582e+03 
 4.79500000e-03  1.50616580e-01 -1.74602280e-05  8.62626655e+03 
 5.04500000e-03  1.58466808e-01 -1.75882551e-05  9.01262078e+03 
 5.54500000e-03  1.74166073e-01 -1.77023490e-05  9.84420299e+03 
 6.54500000e-03  2.05559290e-01 -2.05534535e-05  1.00012045e+04 
 7.67025003e-03  2.40874743e-01 -2.40840511e-05  1.00014587e+04 
 9.12173038e-03  2.86410749e-01 -2.86366881e-05  1.00015458e+04 
 1.11217304e-02  3.49115170e-01 -3.49059754e-05  1.00015968e+04 
 1.31217304e-02  4.11764461e-01 -4.11697847e-05  1.00016219e+04 
 1.51217304e-02  4.74348729e-01 -4.74273072e-05  1.00015953e+04 
 1.71217304e-02  5.36858093e-01 -5.36774954e-05  1.00015428e+04 
 1.91217304e-02  5.99282680e-01 -5.99196339e-05  1.00014292e+04 
 2.11217304e-02  6.61612633e-01 -6.61525609e-05  1.00013038e+04 
 2.31217304e-02  7.23838111e-01 -7.23753766e-05  1.00011525e+04 
 2.51217304e-02  7.85949286e-01 -7.85852008e-05  1.00012294e+04 
 2.71217304e-02  8.47936350e-01 -8.47830244e-05  1.00012534e+04 
 2.91217304e-02  9.09789516e-01 -9.09675557e-05  1.00012528e+04 
 3.11217304e-02  9.71499015e-01 -9.71380050e-05  1.00012229e+04 
 3.31217304e-02  1.03305510e+00 -1.03293088e-04  1.00012015e+04 
 3.33717304e-02  1.04073834e+00 -1.04063365e-04  1.00010062e+04 
 3.38717304e-02  1.05609710e+00 -1.05601150e-04  1.00008107e+04 
 3.48717304e-02  1.08678319e+00 -1.08669515e-04  1.00008103e+04 
 3.68717304e-02  1.14802546e+00 -1.14793253e-04  1.00008095e+04 
 3.88717304e-02  1.20908643e+00 -1.20898866e-04  1.00008088e+04 
 4.08717304e-02  1.26995648e+00 -1.26985388e-04  1.00008080e+04 
 4.28717304e-02  1.33062599e+00 -1.33051859e-04  1.00008073e+04 
 4.48717304e-02  1.39108537e+00 -1.39097319e-04  1.00008066e+04 
 4.68717304e-02  1.45132509e+00 -1.45120815e-04  1.00008059e+04 
 4.88717304e-02  1.51133563e+00 -1.51121395e-04  1.00008052e+04 
 5.08717304e-02  1.57110751e+00 -1.57098112e-04  1.00008046e+04 
 5.28717304e-02  1.63063129e+00 -1.63050022e-04  1.00008039e+04 
 5.48717304e-02  1.68989758e+00 -1.68976185e-04  1.00008033e+04 
 5.68717304e-02  1.74889701e+00 -1.74875665e-04  1.00008027e+04 
 5.88717304e-02  1.80762027e+00 -1.80747531e-04  1.00008021e+04 
 6.08717304e-02  1.86605809e+00 -1.86590855e-04  1.00008015e+04 
 6.28717304e-02  1.92420123e+00 -1.92404714e-04  1.00008009e+04 
 6.48717304e-02  1.98204052e+00 -1.98188191e-04  1.00008004e+04 
 6.68717304e-02  2.03956683e+00 -2.03940373e-04  1.00007998e+04 
 6.88717304e-02  2.09677106e+00 -2.09660350e-04  1.00007993e+04 
 7.08717304e-02  2.15364419e+00 -2.15347219e-04  1.00007988e+04 
 7.28717304e-02  2.21017723e+00 -2.21000083e-04  1.00007983e+04 
 7.48717304e-02  2.26636127e+00 -2.26618049e-04  1.00007978e+04 
 7.68717304e-02  2.32218741e+00 -2.32200230e-04  1.00007973e+04 
 7.88717304e-02  2.37764686e+00 -2.37745744e-04  1.00007968e+04 
 8.08717304e-02  2.43273084e+00 -2.43253716e-04  1.00007963e+04 
 8.28717304e-02  2.48743068e+00 -2.48723275e-04  1.00007959e+04 
 8.48717304e-02  2.54173771e+00 -2.54153558e-04  1.00007954e+04 
 8.68717304e-02  2.59564338e+00 -2.59543708e-04  1.00007950e+04 
 8.88717304e-02  2.64913917e+00 -2.64892873e-04  1.00007945e+04 
 9.08717304e-02  2.70221662e+00 -2.70200209e-04  1.00007941e+04 
 9.28717304e-02  2.75486736e+00 -2.75464877e-04  1.00007937e+04 
 9.48717304e-02  2.80708308e+00 -2.80686046e-04  1.00007932e+04 
 9.68717304e-02  2.85885553e+00 -2.85862892e-04  1.00007928e+04 
 9.88717304e-02  2.91017653e+00 -2.90994597e-04  1.00007924e+04 
 1.00871730e-01  2.96103798e+00 -2.96080351e-04  1.00007920e+04 
 1.02871730e-01  3.01143185e+00 -3.01119351e-04  1.00007916e+04 
 1.04871730e-01  3.06135018e+00 -3.06110800e-04  1.00007912e+04 
 1.06871730e-01  3.11078508e+00 -3.11053912e-04  1.00007908e+04 
 1.08871730e-01  3.15972876e+00 -3.15947904e-04  1.00007905e+04 
 1.10871730e-01  3.20817348e+00 -3.20792005e-04  1.00007901e+04 
 1.12871730e-01  3.25611159e+00 -3.25585450e-04  1.00007897e+04 
 1.14871730e-01  3.30353552e+00 -3.30327481e-04  1.00007894e+04 
 1.16871730e-01  3.35043779e+00 -3.35017349e-04  1.00007890e+04 
 1.18871730e-01  3.39681098e+00 -3.39654315e-04  1.00007887e+04 
 1.20871730e-01  3.44264778e+00 -3.44237645e-04  1.00007883e+04 
 1.22871730e-01  3.48794095e+00 -3.48766616e-04  1.00007880e+04 
 1.24871730e-01  3.53268332e+00 -3.53240513e-04  1.00007876e+04 
 1.26871730e-01  3.57686785e+00 -3.57658630e-04  1.00007873e+04 
 1.28871730e-01  3.62048755e+00 -3.62020268e-04  1.00007870e+04 
 1.30871730e-01  3.66353553e+00 -3.66324740e-04  1.00007866e+04 
 1.32871730e-01  3.70600499e+00 -3.70571364e-04  1.00007863e+04 
 1.34871730e-01  3.74788924e+00 -3.74759471e-04  1.00007860e+04 
 1.36871730e-01  3.78918165e+00 -3.78888399e-04  1.00007857e+04 
 1.38871730e-01  3.82987570e+00 -3.82957497e-04  1.00007854e+04 
 1.40871730e-01  3.86996497e+00 -3.86966121e-04  1.00007851e+04 
 1.42871730e-01  3.90944313e+00 -3.90913639e-04  1.00007848e+04 
 1.44871730e-01  3.94830394e+00 -3.94799427e-04  1.00007845e+04 
 1.46871730e-01  3.98654127e+00 -3.98622872e-04  1.00007842e+04 
 1.48871730e-01  4.02414908e+00 -4.02383370e-04  1.00007839e+04 
 1.50871730e-01  4.06112143e+00 -4.06080327e-04  1.00007836e+04 
 1.52871730e-01  4.09745248e+00 -4.09713159e-04  1.00007833e+04 
 1.54871730e-01  4.13313650e+00 -4.13281293e-04  1.00007830e+04 
 1.56871730e-01  4.16816784e+00 -4.16784165e-04  1.00007827e+04 
 1.58871730e-01  4.20254099e+00 -4.20221221e-04  1.00007825e+04 
 1.60871730e-01  4.23625050e+00 -4.23591921e-04  1.00007822e+04 
 1.62871730e-01  4.26929106e+00 -4.26895730e-04  1.00007819e+04 
 1.64871730e-01  4.30165745e+00 -4.30132127e-04  1.00007817e+04 
 1.66871730e-01  4.33334456e+00 -4.33300602e-04  1.00007814e+04 
 1.68871730e-01  4.36434738e+00 -4.36400654e-04  1.00007811e+04 
 1.70871730e-01  4.39466102e+00 -4.39431793e-04  1.00007809e+04 
 1.72871730e-01  4.42428070e+00 -4.42393540e-04  1.00007806e+04 
 1.74871730e-01  4.45320172e+00 -4.45285429e-04  1.00007804e+04 
 1.76871730e-01  4.48141954e+00 -4.48107001e-04  1.00007801e+04 
 1.78871730e-01  4.50892969e+00 -4.50857813e-04  1.00007799e+04 
 1.80871730e-01  4.53572783e+00 -4.53537429e-04  1.00007796e+04 
 1.82871730e-01  4.56180972e+00 -4.56145426e-04  1.00007794e+04 
 1.84871730e-01  4.58717125e+00 -4.58681392e-04  1.00007791e+04 
 1.86871730e-01  4.61180841e+00 -4.61144928e-04  1.00007789e+04 
 1.88871730e-01  4.63571731e+00 -4.63535643e-04  1.00007786e+04 
 1.90871730e-01  4.65889418e+00 -4.65853161e-04  1.00007784e+04 
 1.92871730e-01  4.68133536e+00 -4.68097115e-04  1.00007782e+04 
 1.94871730e-01  4.70303730e+00 -4.70267151e-04  1.00007779e+04 
 1.96871730e-01  4.72399658e+00 -4.72362926e-04  1.00007777e+04 
 1.98871730e-01  4.74420988e+00 -4.74384110e-04  1.00007775e+04 
 2.00871730e-01  4.76367402e+00 -4.76330383e-04  1.00007773e+04 
 2.02871730e-01  4.78238591e+00 -4.78201438e-04  1.00007770e+04 
 2.04871730e-01  4.80034262e+00 -4.79996980e-04  1.00007768e+04 
 2.06871730e-01  4.81754129e+00 -4.81716724e-04  1.00007766e+04 
 2.08871730e-01  4.83397922e+00 -4.83360400e-04  1.00007764e+04 
 2.10871730e-01  4.84965380e+00 -4.84927747e-04  1.00007762e+04 
 2.12871730e-01  4.86456257e+00 -4.86418519e-04  1.00007759e+04 
 2.14871730e-01  4.87870317e+00 -4.87832479e-04  1.00007757e+04 
 2.16871730e-01  4.89207337e+00 -4.89169405e-04  1.00007755e+04 
 2.18871730e-01  4.90467105e+00 -4.90429086e-04  1.00007753e+04 
 2.20871730e-01  4.91649422e+00 -4.91611322e-04  1.00007751e+04 
 2.22871730e-01  4.92754103e+00 -4.92715927e-04  1.00007749e+04 
 2.24871730e-01  4.93780971e+00 -4.93742726e-04  1.00007747e+04 
 2.26871730e-01  4.94729866e+00 -4.94691558e-04  1.00007745e+04 
 2.28871730e-01  4.95600638e+00 -4.95562272e-04  1.00007743e+04 
 2.30871730e-01  4.96393148e+00 -4.96354731e-04  1.00007741e+04 
 2.32871730e-01  4.97107273e+00 -4.97068810e-04  1.00007739e+04 
 2.34871730e-01  4.97742898e+00 -4.97704396e-04  1.00007737e+04 
 2.36871730e-01  4.98299924e+00 -4.98261388e-04  1.00007735e+04 
 2.38871730e-01  4.98778262e+00 -4.98739699e-04  1.00007733e+04 
 2.40871730e-01  4.99177838e+00 -4.99139254e-04  1.00007731e+04 
 2.42871730e-01  4.99498587e+00 -4.99459988e-04  1.00007729e+04 
 2.44871730e-01  4.99740460e+00 -4.99701852e-04  1.00007727e+04 
 2.46871730e-01  4.99903418e+00 -4.99864807e-04  1.00007725e+04 
 2.48871730e-01  4.99987436e+00 -4.99948827e-04  1.00007724e+04 
 2.50871730e-01  4.99992500e+00 -4.99953900e-04  1.00007722e+04 
 2.52871730e-01  4.99918609e+00 -4.99880024e-04  1.00007720e+04 
 2.54871730e-01  4.99765775e+00 -4.99727211e-04  1.00007718e+04 
 2.56871730e-01  4.99534023e+00 -4.99495486e-04  1.00007716e+04 
 2.58871730e-01  4.99223388e+00 -4.99184884e-04  1.00007714e+04 
 2.60871730e-01  4.98833920e+00 -4.98795455e-04  1.00007713e+04 
 2.62871730e-01  4.98365681e+00 -4.98327260e-04  1.00007711e+04 
 2.64871730e-01  4.97818744e+00 -4.97780374e-04  1.00007709e+04 
 2.66871730e-01  4.97193195e+00 -4.97154882e-04  1.00007707e+04 
 2.68871730e-01  4.96489134e+00 -4.96450884e-04  1.00007706e+04 
 2.70871730e-01  4.95706671e+00 -4.95668490e-04  1.00007704e+04 
 2.72871730e-01  4.94845931e+00 -4.94807825e-04  1.00007702e+04 
 2.74871730e-01  4.93907048e+00 -4.93869023e-04  1.00007700e+04 
 2.76871730e-01  4.92890172e+00 -4.92852234e-04  1.00007699e+04 
 2.78871730e-01  4.91795463e+00 -4.91757617e-04  1.00007697e+04 
 2.80871730e-01  4.90623094e+00 -4.90585347e-04  1.00007695e+04 
 2.82871730e-01  4.89373250e+00 -4.89335607e-04  1.00007694e+04 
 2.84871730e-01  4.88046128e+00 -4.88008595e-04  1.00007692e+04 
 2.86871730e-01  4.86641938e+00 -4.86604521e-04  1.00007690e+04 
 2.88871730e-01  4.85160901e+00 -4.85123606e-04  1.00007689e+04 
 2.90871730e-01  4.83603252e+00 -4.83566084e-04  1.00007687e+04 
 2.92871730e-01  4.81969236e+00 -4.81932202e-04  1.00007686e+04 
 2.94871730e-01  4.80259112e+00 -4.80222217e-04  1.00007684e+04 
 2.96871730e-01  4.78473150e+00 -4.78436399e-04  1.00007682e+04 
 2.98871730e-01  4.76611630e+00 -4.76575030e-04  1.00007681e+04 
 3.00871730e-01  4.74674849e+00 -4.74638405e-04  1.00007679e+04 
 3.02871730e-01  4.72663110e+00 -4.72626829e-04  1.00007678e+04 
 3.04871730e-01  4.70576733e+00 -4.70540619e-04  1.00007676e+04 
 3.06871730e-01  4.68416046e+00 -4.68380105e-04  1.00007675e+04 
 3.08871730e-01  4.66181391e+00 -4.66145628e-04  1.00007673e+04 
 3.10871730e-01  4.63873121e+00 -4.63837542e-04  1.00007672e+04 
 3.12871730e-01  4.61491599e+00 -4.61456210e-04  1.00007670e+04 
 3.14871730e-01  4.59037203e+00 -4.59002009e-04  1.00007668e+04 
 3.16871730e-01  4.56510319e+00 -4.56475326e-04  1.00007667e+04 
 3.18871730e-01  4.53911347e+00 -4.53876560e-04  1.00007665e+04 
 3.20871730e-01  4.51240697e+00 -4.51206121e-04  1.00007664e+04 
 3.22871730e-01  4.48498791e+00 -4.48464432e-04  1.00007663e+04 
 3.24871730e-01  4.45686062e+00 -4.45651925e-04  1.00007661e+04 
 3.26871730e-01  4.42802954e+00 -4.42769044e-04  1.00007660e+04 
 3.28871730e-01  4.39849922e+00 -4.39816245e-04  1.00007658e+04 
 3.30871730e-01  4.36827433e+00 -4.36793993e-04  1.00007657e+04 
 3.32871730e-01  4.33735964e+00 -4.33702767e-04  1.00007655e+04 
 3.34871730e-01  4.30576003e+00 -4.30543054e-04  1.00007654e+04 
 3.36871730e-01  4.27348048e+00 -4.27315353e-04  1.00007652e+04 
 3.38871730e-01  4.24052611e+00 -4.24020173e-04  1.00007651e+04 
 3.40871730e-01  4.20690211e+00 -4.20658036e-04  1.00007650e+04 
 3.42871730e-01  4.17261379e+00 -4.17229472e-04  1.00007648e+04 
 3.44871730e-01  4.13766656e+00 -4.13735022e-04  1.00007647e+04 
 3.46871730e-01  4.10206595e+00 -4.10175239e-04  1.00007645e+04 
 3.48871730e-01  4.06581758e+00 -4.06550684e-04  1.00007644e+04 
 3.50871730e-01  4.02892716e+00 -4.02861930e-04  1.00007643e+04 
 3.52871730e-01  3.99140053e+00 -3.99109560e-04  1.00007641e+04 
 3.54871730e-01  3.95324362e+00 -3.95294165e-04  1.00007640e+04 
 3.56871730e-01  3.91446244e+00 -3.91416348e-04  1.00007639e+04 
 3.58871730e-01  3.87506312e+00 -3.87476723e-04  1.00007637e+04 
 3.60871730e-01  3.83505188e+00 -3.83475910e-04  1.00007636e+04 
 3.62871730e-01  3.79443504e+00 -3.79414541e-04  1.00007635e+04 
 3.64871730e-01  3.75321902e+00 -3.75293259e-04  1.00007633e+04 
 3.66871730e-01  3.71141033e+00 -3.71112713e-04  1.00007632e+04 
 3.68871730e-01  3.66901555e+00 -3.66873564e-04  1.00007631e+04 
 3.70871730e-01  3.62604140e+00 -3.62576481e-04  1.00007629e+04 
 3.72871730e-01  3.58249466e+00 -3.58222143e-04  1.00007628e+04 
 3.74871730e-01  3.53838219e+00 -3.53811238e-04  1.00007627e+04 
 3.76871730e-01  3.49371098e+00 -3.49344461e-04  1.00007626e+04 
 3.78871730e-01  3.44848806e+00 -3.44822519e-04  1.00007624e+04 
 3.80871730e-01  3.40272059e+00 -3.40246126e-04  1.00007623e+04 
 3.82871730e-01  3.35641580e+00 -3.35616003e-04  1.00007622e+04 
 3.84871730e-01  3.30958098e+00 -3.30932883e-04  1.00007621e+04 
 3.86871730e-01  3.26222355e+00 -3.26197504e-04  1.00007619e+04 
 3.88871730e-01  3.21435097e+00 -3.21410615e-04  1.00007618e+04 
 3.90871730e-01  3.16597080e+00 -3.16572971e-04  1.00007617e+04 
 3.92871730e-01  3.11709070e+00 -3.11685336e-04  1.00007616e+04 
 3.94871730e-01  3.06771837e+00 -3.06748483e-04  1.00007614e+04 
 3.96871730e-01  3.01786161e+00 -3.01763190e-04  1.00007613e+04 
 3.98871730e-01  2.96752829e+00 -2.96730245e-04  1.00007612e+04 
 4.00871730e-01  2.91672637e+00 -2.91650443e-04  1.00007611e+04 
 4.02871730e-01  2.86546387e+00 -2.86524586e-04  1.00007610e+04 
 4.04871730e-01  2.81374887e+00 -2.81353483e-04  1.00007608e+04 
 4.06871730e-01  2.76158955e+00 -2.76137951e-04  1.00007607e+04 
 4.08871730e-01  2.70899414e+00 -2.70878814e-04  1.00007606e+04 
 4.10871730e-01  2.65597095e+00 -2.65576902e-04  1.00007605e+04 
 4.12871730e-01  2.60252836e+00 -2.60233051e-04  1.00007604e+04 
 4.14871730e-01  2.54867479e+00 -2.54848107e-04  1.00007602e+04 
 4.16871730e-01  2.49441876e+00 -2.49422919e-04  1.00007601e+04 
 4.18871730e-01  2.43976883e+00 -2.43958344e-04  1.00007600e+04 
 4.20871730e-01  2.38473363e+00 -2.38455246e-04  1.00007599e+04 
 4.22871730e-01  2.32932186e+00 -2.32914492e-04  1.00007598e+04 
 4.24871730e-01  2.27354226e+00 -2.27336958e-04  1.00007597e+04 
 4.26871730e-01  2.21740364e+00 -2.21723525e-04  1.00007596e+04 
 4.28871730e-01  2.16091486e+00 -2.16075079e-04  1.00007594e+04 
 4.30871730e-01  2.10408486e+00 -2.10392512e-04  1.00007593e+04 
 4.32871730e-01  2.04692259e+00 -2.04676722e-04  1.00007592e+04 
 4.34871730e-01  1.98943709e+00 -1.98928610e-04  1.00007591e+04 
 4.36871730e-01  1.93163744e+00 -1.93149086e-04  1.00007590e+04 
 4.38871730e-01  1.87353275e+00 -1.87339060e-04  1.00007589e+04 
 4.40871730e-01  1.81513222e+00 -1.81499452e-04  1.00007588e+04 
 4.42871730e-01  1.75644505e+00 -1.75631183e-04  1.00007587e+04 
 4.44871730e-01  1.69748053e+00 -1.69735179e-04  1.00007586e+04 
 4.46871730e-01  1.63824795e+00 -1.63812372e-04  1.00007584e+04 
 4.48871730e-01  1.57875667e+00 -1.57863697e-04  1.00007583e+04 
 4.50871730e-01  1.51901608e+00 -1.51890093e-04  1.00007582e+04 
 4.52871730e-01  1.45903563e+00 -1.45892504e-04  1.00007581e+04 
 4.54871730e-01  1.39882478e+00 -1.39871877e-04  1.00007580e+04 
 4.56871730e-01  1.33839304e+00 -1.33829162e-04  1.00007579e+04 
 4.58871730e-01  1.27774995e+00 -1.27765314e-04  1.00007578e+04 
 4.60871730e-01  1.21690509e+00 -1.21681290e-04  1.00007577e+04 
 4.62871730e-01  1.15586806e+00 -1.15578051e-04  1.00007576e+04 
 4.64871730e-01  1.09464851e+00 -1.09456561e-04  1.00007575e+04 
 4.66871730e-01  1.03325611e+00 -1.03317786e-04  1.00007574e+04 
 4.68871730e-01  9.71700535e-01 -9.71626966e-05  1.00007573e+04 
 4.70871730e-01  9.09991521e-01 -9.09922634e-05  1.00007572e+04 
 4.72871730e-01  8.48138810e-01 -8.48074613e-05  1.00007571e+04 
 4.74871730e-01  7.86152167e-01 -7.86092671e-05  1.00007570e+04 
 4.76871730e-01  7.24041382e-01 -7.23986594e-05  1.00007569e+04 
 4.78871730e-01  6.61816263e-01 -6.61766189e-05  1.00007568e+04 
 4.80871730e-01  5.99486634e-01 -5.99441283e-05  1.00007567e+04 
 4.82871730e-01  5.37062341e-01 -5.37021717e-05  1.00007566e+04 
 4.84871730e-01  4.74553238e-01 -4.74517348e-05  1.00007565e+04 
 4.86871730e-01  4.11969198e-01 -4.11938046e-05  1.00007564e+04 
 4.88871730e-01  3.49320104e-01 -3.49293692e-05  1.00007563e+04 
 4.90871730e-01  2.86615848e-01 -2.86594180e-05  1.00007562e+04 
 4.92871730e-01  2.23866332e-01 -2.23849410e-05  1.00007561e+04 
 4.94871730e-01  1.61081464e-01 -1.61069290e-05  1.00007560e+04 
 4.96871730e-01  9.82711605e-02 -9.82637347e-06  1.00007559e+04 
 4.98871730e-01  3.54453385e-02 -3.54426608e-06  1.00007558e+04 
 5.00871730e-01 -2.73860808e-02  2.81550086e-06  9.72689491e+03 
 5.02871730e-01 -9.02131754e-02  1.05501352e-05  8.55090235e+03 
 5.04871730e-01 -1.53026024e-01  2.50103402e-05  6.11851035e+03 
 5.06871730e-01 -2.15814709e-01  8.88088725e-05  2.43010302e+03 
 5.08445546e-01 -2.65200151e-01  2.65509006e-04  9.98836743e+02 
 5.09999274e-01 -3.13929820e-01  3.14377301e-04  9.98528736e+02 
 5.10859390e-01 -3.40893145e-01  3.41416765e-04  9.98463443e+02 
 5.12016045e-01 -3.77136666e-01  3.77728837e-04  9.98428974e+02 
 5.14016045e-01 -4.39758104e-01  4.40448208e-04  9.98433878e+02 
 5.16016045e-01 -5.02310099e-01  5.03084439e-04  9.98464647e+02 
 5.18016045e-01 -5.64782774e-01  5.65622713e-04  9.98521281e+02 
 5.20016045e-01 -6.27166262e-01  6.28030093e-04  9.98635934e+02 
 5.22016045e-01 -6.89450714e-01  6.90313708e-04  9.98761152e+02 
 5.22266045e-01 -6.97228817e-01  6.97933837e-04  9.98989848e+02 
 5.22766045e-01 -7.12779843e-01  7.13337262e-04  9.99218576e+02 
 5.23766045e-01 -7.43860636e-01  7.44442264e-04  9.99218708e+02 
 5.25766045e-01 -8.05932898e-01  8.06562865e-04  9.99218969e+02 
 5.27766045e-01 -8.67877893e-01  8.68556055e-04  9.99219228e+02 
 5.29766045e-01 -9.29685841e-01  9.30412059e-04  9.99219484e+02 
 5.31766045e-01 -9.91346981e-01  9.92121111e-04  9.99219738e+02 
 5.33766045e-01 -1.05285157e+00  1.05367347e-03  9.99219989e+02 
 5.35766045e-01 -1.11418991e+00  1.11505941e-03  9.99220238e+02 
 5.37766045e-01 -1.17535231e+00  1.17626924e-03  9.99220485e+02 
 5.39766045e-01 -1.23632910e+00  1.23729330e-03  9.99220729e+02 
 5.41766045e-01 -1.29711066e+00  1.29812195e-03  9.99220971e+02 
 5.43766045e-01 -1.35768739e+00  1.35874558e-03  9.99221211e+02 
 5.45766045e-01 -1.41804973e+00  1.41915463e-03  9.99221448e+02 
 5.47766045e-01 -1.47818814e+00  1.47933955e-03  9.99221683e+02 
 5.49766045e-01 -1.53809313e+00  1.53929084e-03  9.99221917e+02 
 5.51766045e-01 -1.59775523e+00  1.59899903e-03  9.99222148e+02 
 5.53766045e-01 -1.65716503e+00  1.65845470e-03  9.99222377e+02 
 5.55766045e-01 -1.71631315e+00  1.71764846e-03  9.99222604e+02 
 5.57766045e-01 -1.77519024e+00  1.77657095e-03  9.99222829e+02 
 5.59766045e-01 -1.83378700e+00  1.83521288e-03  9.99223052e+02 
 5.61766045e-01 -1.89209419e+00  1.89356499e-03  9.99223273e+02 
