 time            vin             i(v1)           l0             
 2.50000000e-06  7.85398163e-05 -1.12787921e-08  6.96349541e+03 
 2.81250000e-06  8.83572934e-05 -1.22047003e-08  7.23961195e+03 
 3.43750000e-06  1.07992247e-04 -1.37513612e-08  7.85320427e+03 
 4.68750000e-06  1.47262156e-04 -1.55856979e-08  9.44854428e+03 
 7.18750000e-06  2.25801972e-04 -2.00013774e-08  1.12893212e+04 
 9.53529055e-06  2.99559987e-04 -2.65348097e-08  1.12893212e+04 
 1.30975139e-05  4.11470535e-04 -3.64477661e-08  1.12893212e+04 
 1.69368196e-05  5.32085878e-04 -4.71317870e-08  1.12893212e+04 
 2.46154308e-05  7.73316563e-04 -6.84998288e-08  1.12893212e+04 
 3.99726533e-05  1.25577793e-03 -1.11235912e-07  1.12893212e+04 
 7.06870984e-05  2.22070062e-03 -1.96708075e-07  1.12893212e+04 
 1.32115989e-04  4.15054571e-03 -3.67652375e-07  1.12893212e+04 
 2.54973769e-04  8.01023376e-03 -7.09540785e-07  1.12893212e+04 
 5.00689329e-04  1.57295932e-02 -1.39331613e-06  1.12893212e+04 
 9.92120450e-04  3.11681813e-02 -2.76085524e-06  1.12893212e+04 
 1.97498269e-03  6.20443188e-02 -5.49584144e-06  1.12893212e+04 
 2.00000000e-03  6.28301994e-02 -5.56545419e-06  1.12893212e+04 
 2.05003462e-03  6.44019560e-02 -5.70467926e-06  1.12893212e+04 
 2.15010385e-03  6.75454499e-02 -5.98312771e-06  1.12893212e+04 
 2.35024231e-03  7.38323563e-02 -6.54001739e-06  1.12893212e+04 
 2.75051923e-03  8.64058089e-02 -7.65376484e-06  1.12893212e+04 
 3.55107308e-03  1.11550995e-01 -9.88110746e-06  1.12893212e+04 
 5.15218078e-03  1.61832264e-01 -1.43349864e-05  1.12893212e+04 
 7.15218078e-03  2.24616767e-01 -1.98963928e-05  1.12893212e+04 
 9.15218078e-03  2.87365801e-01 -2.54546574e-05  1.12893212e+04 
 1.11521808e-02  3.50069456e-01 -3.10089024e-05  1.12893212e+04 
 1.31521808e-02  4.12717831e-01 -3.65582507e-05  1.12893212e+04 
 1.51521808e-02  4.75301033e-01 -4.21018260e-05  1.12893212e+04 
 1.71521808e-02  5.37809180e-01 -4.76387530e-05  1.12893212e+04 
 1.91521808e-02  6.00232400e-01 -5.31681573e-05  1.12893212e+04 
 2.11521808e-02  6.62560837e-01 -5.86891657e-05  1.12893212e+04 
 2.31521808e-02  7.24784648e-01 -6.42009064e-05  1.12893212e+04 
 2.51521808e-02  7.86894006e-01 -6.97025091e-05  1.12893212e+04 
 2.71521808e-02  8.48879105e-01 -7.51931049e-05  1.12893212e+04 
 2.91521808e-02  9.10730157e-01 -8.06718268e-05  1.12893212e+04 
 3.11521808e-02  9.72437393e-01 -8.61378097e-05  1.12893212e+04 
 3.31521808e-02  1.03399107e+00 -9.15901905e-05  1.12893212e+04 
 3.51521808e-02  1.09538147e+00 -9.70281081e-05  1.12893212e+04 
 3.71521808e-02  1.15659889e+00 -1.02450704e-04  1.12893212e+04 
 3.91521808e-02  1.21763368e+00 -1.07857121e-04  1.12893212e+04 
 4.11521808e-02  1.27847618e+00 -1.13246507e-04  1.12893212e+04 
 4.31521808e-02  1.33911680e+00 -1.18618010e-04  1.12893212e+04 
 4.51521808e-02  1.39954596e+00 -1.23970782e-04  1.12893212e+04 
 4.71521808e-02  1.45975411e+00 -1.29303977e-04  1.12893212e+04 
 4.91521808e-02  1.51973175e+00 -1.34616753e-04  1.12893212e+04 
 5.11521808e-02  1.57946941e+00 -1.39908272e-04  1.12893212e+04 
 5.31521808e-02  1.63895765e+00 -1.45177698e-04  1.12893212e+04 
 5.51521808e-02  1.69818708e+00 -1.50424199e-04  1.12893212e+04 
 5.71521808e-02  1.75714835e+00 -1.55646946e-04  1.12893212e+04 
 5.91521808e-02  1.81583214e+00 -1.60845114e-04  1.12893212e+04 
 6.11521808e-02  1.87422920e+00 -1.66017884e-04  1.12893212e+04 
 6.31521808e-02  1.93233029e+00 -1.71164437e-04  1.12893212e+04 
 6.51521808e-02  1.99012624e+00 -1.76283961e-04  1.12893212e+04 
 6.71521808e-02  2.04760793e+00 -1.81375648e-04  1.12893212e+04 
 6.91521808e-02  2.10476627e+00 -1.86438693e-04  1.12893212e+04 
 7.11521808e-02  2.16159225e+00 -1.91472298e-04  1.12893212e+04 
 7.31521808e-02  2.21807689e+00 -1.96475667e-04  1.12893212e+04 
 7.51521808e-02  2.27421127e+00 -2.01448010e-04  1.12893212e+04 
 7.71521808e-02  2.32998653e+00 -2.06388543e-04  1.12893212e+04 
 7.91521808e-02  2.38539385e+00 -2.11296484e-04  1.12893212e+04 
 8.11521808e-02  2.44042449e+00 -2.16171059e-04  1.12893212e+04 
 8.31521808e-02  2.49506977e+00 -2.21011498e-04  1.12893212e+04 
 8.51521808e-02  2.54932104e+00 -2.25817037e-04  1.12893212e+04 
 8.71521808e-02  2.60316974e+00 -2.30586916e-04  1.12893212e+04 
 8.91521808e-02  2.65660737e+00 -2.35320384e-04  1.12893212e+04 
 9.11521808e-02  2.70962550e+00 -2.40016691e-04  1.12893212e+04 
 9.31521808e-02  2.76221574e+00 -2.44675097e-04  1.12893212e+04 
 9.51521808e-02  2.81436979e+00 -2.49294866e-04  1.12893212e+04 
 9.71521808e-02  2.86607943e+00 -2.53875269e-04  1.12893212e+04 
 9.91521808e-02  2.91733648e+00 -2.58415581e-04  1.12893212e+04 
 1.01152181e-01  2.96813284e+00 -2.62915087e-04  1.12893212e+04 
 1.03152181e-01  3.01846051e+00 -2.67373076e-04  1.12893212e+04 
 1.05152181e-01  3.06831152e+00 -2.71788843e-04  1.12893212e+04 
 1.07152181e-01  3.11767801e+00 -2.76161691e-04  1.12893212e+04 
 1.09152181e-01  3.16655218e+00 -2.80490931e-04  1.12893212e+04 
 1.11152181e-01  3.21492632e+00 -2.84775878e-04  1.12893212e+04 
 1.13152181e-01  3.26279279e+00 -2.89015855e-04  1.12893212e+04 
 1.15152181e-01  3.31014402e+00 -2.93210193e-04  1.12893212e+04 
 1.17152181e-01  3.35697254e+00 -2.97358230e-04  1.12893212e+04 
 1.19152181e-01  3.40327096e+00 -3.01459311e-04  1.12893212e+04 
 1.21152181e-01  3.44903196e+00 -3.05512788e-04  1.12893212e+04 
 1.23152181e-01  3.49424832e+00 -3.09518020e-04  1.12893212e+04 
 1.25152181e-01  3.53891290e+00 -3.13474377e-04  1.12893212e+04 
 1.27152181e-01  3.58301864e+00 -3.17381232e-04  1.12893212e+04 
 1.29152181e-01  3.62655858e+00 -3.21237969e-04  1.12893212e+04 
 1.31152181e-01  3.66952584e+00 -3.25043978e-04  1.12893212e+04 
 1.33152181e-01  3.71191365e+00 -3.28798660e-04  1.12893212e+04 
 1.35152181e-01  3.75371530e+00 -3.32501420e-04  1.12893212e+04 
 1.37152181e-01  3.79492419e+00 -3.36151675e-04  1.12893212e+04 
 1.39152181e-01  3.83553383e+00 -3.39748847e-04  1.12893212e+04 
 1.41152181e-01  3.87553779e+00 -3.43292369e-04  1.12893212e+04 
 1.43152181e-01  3.91492975e+00 -3.46781681e-04  1.12893212e+04 
 1.45152181e-01  3.95370350e+00 -3.50216232e-04  1.12893212e+04 
 1.47152181e-01  3.99185292e+00 -3.53595481e-04  1.12893212e+04 
 1.49152181e-01  4.02937198e+00 -3.56918892e-04  1.12893212e+04 
 1.51152181e-01  4.06625475e+00 -3.60185941e-04  1.12893212e+04 
 1.53152181e-01  4.10249541e+00 -3.63396114e-04  1.12893212e+04 
 1.55152181e-01  4.13808825e+00 -3.66548901e-04  1.12893212e+04 
 1.57152181e-01  4.17302763e+00 -3.69643807e-04  1.12893212e+04 
 1.59152181e-01  4.20730804e+00 -3.72680341e-04  1.12893212e+04 
 1.61152181e-01  4.24092406e+00 -3.75658025e-04  1.12893212e+04 
 1.63152181e-01  4.27387040e+00 -3.78576388e-04  1.12893212e+04 
 1.65152181e-01  4.30614184e+00 -3.81434969e-04  1.12893212e+04 
 1.67152181e-01  4.33773330e+00 -3.84233317e-04  1.12893212e+04 
 1.69152181e-01  4.36863977e+00 -3.86970991e-04  1.12893212e+04 
 1.71152181e-01  4.39885639e+00 -3.89647557e-04  1.12893212e+04 
 1.73152181e-01  4.42837837e+00 -3.92262593e-04  1.12893212e+04 
 1.75152181e-01  4.45720107e+00 -3.94815687e-04  1.12893212e+04 
 1.77152181e-01  4.48531992e+00 -3.97306435e-04  1.12893212e+04 
 1.79152181e-01  4.51273048e+00 -3.99734443e-04  1.12893212e+04 
 1.81152181e-01  4.53942844e+00 -4.02099329e-04  1.12893212e+04 
 1.83152181e-01  4.56540956e+00 -4.04400718e-04  1.12893212e+04 
 1.85152181e-01  4.59066975e+00 -4.06638248e-04  1.12893212e+04 
 1.87152181e-01  4.61520503e+00 -4.08811565e-04  1.12893212e+04 
 1.89152181e-01  4.63901151e+00 -4.10920326e-04  1.12893212e+04 
 1.91152181e-01  4.66208543e+00 -4.12964198e-04  1.12893212e+04 
 1.93152181e-01  4.68442316e+00 -4.14942858e-04  1.12893212e+04 
 1.95152181e-01  4.70602117e+00 -4.16855994e-04  1.12893212e+04 
 1.97152181e-01  4.72687603e+00 -4.18703303e-04  1.12893212e+04 
 1.99152181e-01  4.74698447e+00 -4.20484494e-04  1.12893212e+04 
 2.01152181e-01  4.76634331e+00 -4.22199286e-04  1.12893212e+04 
 2.03152181e-01  4.78494949e+00 -4.23847408e-04  1.12893212e+04 
 2.05152181e-01  4.80280006e+00 -4.25428599e-04  1.12893212e+04 
 2.07152181e-01  4.81989222e+00 -4.26942610e-04  1.12893212e+04 
 2.09152181e-01  4.83622326e+00 -4.28389202e-04  1.12893212e+04 
 2.11152181e-01  4.85179061e+00 -4.29768147e-04  1.12893212e+04 
 2.13152181e-01  4.86659180e+00 -4.31079226e-04  1.12893212e+04 
 2.15152181e-01  4.88062450e+00 -4.32322232e-04  1.12893212e+04 
 2.17152181e-01  4.89388649e+00 -4.33496970e-04  1.12893212e+04 
 2.19152181e-01  4.90637569e+00 -4.34603254e-04  1.12893212e+04 
 2.21152181e-01  4.91809010e+00 -4.35640909e-04  1.12893212e+04 
 2.23152181e-01  4.92902790e+00 -4.36609771e-04  1.12893212e+04 
 2.25152181e-01  4.93918734e+00 -4.37509687e-04  1.12893212e+04 
 2.27152181e-01  4.94856683e+00 -4.38340516e-04  1.12893212e+04 
 2.29152181e-01  4.95716489e+00 -4.39102125e-04  1.12893212e+04 
 2.31152181e-01  4.96498014e+00 -4.39794395e-04  1.12893212e+04 
 2.33152181e-01  4.97201138e+00 -4.40417217e-04  1.12893212e+04 
 2.35152181e-01  4.97825747e+00 -4.40970491e-04  1.12893212e+04 
 2.37152181e-01  4.98371744e+00 -4.41454131e-04  1.12893212e+04 
 2.39152181e-01  4.98839042e+00 -4.41868061e-04  1.12893212e+04 
 2.41152181e-01  4.99227568e+00 -4.42212214e-04  1.12893212e+04 
 2.43152181e-01  4.99537260e+00 -4.42486537e-04  1.12893212e+04 
 2.45152181e-01  4.99768069e+00 -4.42690986e-04  1.12893212e+04 
 2.47152181e-01  4.99919959e+00 -4.42825529e-04  1.12893212e+04 
 2.49152181e-01  4.99992906e+00 -4.42890145e-04  1.12893212e+04 
 2.51152181e-01  4.99986898e+00 -4.42884823e-04  1.12893212e+04 
 2.53152181e-01  4.99901936e+00 -4.42809565e-04  1.12893212e+04 
 2.55152181e-01  4.99738035e+00 -4.42664382e-04  1.12893212e+04 
 2.57152181e-01  4.99495218e+00 -4.42449297e-04  1.12893212e+04 
 2.59152181e-01  4.99173526e+00 -4.42164344e-04  1.12893212e+04 
 2.61152181e-01  4.98773008e+00 -4.41809568e-04  1.12893212e+04 
 2.63152181e-01  4.98293729e+00 -4.41385026e-04  1.12893212e+04 
 2.65152181e-01  4.97735763e+00 -4.40890783e-04  1.12893212e+04 
 2.67152181e-01  4.97099198e+00 -4.40326919e-04  1.12893212e+04 
 2.69152181e-01  4.96384136e+00 -4.39693522e-04  1.12893212e+04 
 2.71152181e-01  4.95590689e+00 -4.38990693e-04  1.12893212e+04 
 2.73152181e-01  4.94718983e+00 -4.38218542e-04  1.12893212e+04 
 2.75152181e-01  4.93769155e+00 -4.37377191e-04  1.12893212e+04 
 2.77152181e-01  4.92741355e+00 -4.36466773e-04  1.12893212e+04 
 2.79152181e-01  4.91635745e+00 -4.35487432e-04  1.12893212e+04 
 2.81152181e-01  4.90452500e+00 -4.34439322e-04  1.12893212e+04 
 2.83152181e-01  4.89191808e+00 -4.33322609e-04  1.12893212e+04 
 2.85152181e-01  4.87853866e+00 -4.32137470e-04  1.12893212e+04 
 2.87152181e-01  4.86438886e+00 -4.30884091e-04  1.12893212e+04 
 2.89152181e-01  4.84947092e+00 -4.29562671e-04  1.12893212e+04 
 2.91152181e-01  4.83378720e+00 -4.28173417e-04  1.12893212e+04 
 2.93152181e-01  4.81734016e+00 -4.26716550e-04  1.12893212e+04 
 2.95152181e-01  4.80013241e+00 -4.25192300e-04  1.12893212e+04 
 2.97152181e-01  4.78216666e+00 -4.23600907e-04  1.12893212e+04 
 2.99152181e-01  4.76344575e+00 -4.21942622e-04  1.12893212e+04 
 3.01152181e-01  4.74397264e+00 -4.20217708e-04  1.12893212e+04 
 3.03152181e-01  4.72375040e+00 -4.18426436e-04  1.12893212e+04 
 3.05152181e-01  4.70278222e+00 -4.16569090e-04  1.12893212e+04 
 3.07152181e-01  4.68107142e+00 -4.14645963e-04  1.12893212e+04 
 3.09152181e-01  4.65862143e+00 -4.12657359e-04  1.12893212e+04 
 3.11152181e-01  4.63543579e+00 -4.10603591e-04  1.12893212e+04 
 3.13152181e-01  4.61151815e+00 -4.08484984e-04  1.12893212e+04 
 3.15152181e-01  4.58687231e+00 -4.06301873e-04  1.12893212e+04 
 3.17152181e-01  4.56150214e+00 -4.04054602e-04  1.12893212e+04 
 3.19152181e-01  4.53541166e+00 -4.01743526e-04  1.12893212e+04 
 3.21152181e-01  4.50860499e+00 -3.99369010e-04  1.12893212e+04 
 3.23152181e-01  4.48108635e+00 -3.96931428e-04  1.12893212e+04 
 3.25152181e-01  4.45286010e+00 -3.94431167e-04  1.12893212e+04 
 3.27152181e-01  4.42393069e+00 -3.91868621e-04  1.12893212e+04 
 3.29152181e-01  4.39430269e+00 -3.89244194e-04  1.12893212e+04 
 3.31152181e-01  4.36398078e+00 -3.86558301e-04  1.12893212e+04 
 3.33152181e-01  4.33296975e+00 -3.83811366e-04  1.12893212e+04 
 3.35152181e-01  4.30127449e+00 -3.81003822e-04  1.12893212e+04 
 3.37152181e-01  4.26890001e+00 -3.78136114e-04  1.12893212e+04 
 3.39152181e-01  4.23585142e+00 -3.75208694e-04  1.12893212e+04 
 3.41152181e-01  4.20213394e+00 -3.72222023e-04  1.12893212e+04 
 3.43152181e-01  4.16775290e+00 -3.69176575e-04  1.12893212e+04 
 3.45152181e-01  4.13271372e+00 -3.66072829e-04  1.12893212e+04 
 3.47152181e-01  4.09702193e+00 -3.62911276e-04  1.12893212e+04 
 3.49152181e-01  4.06068318e+00 -3.59692416e-04  1.12893212e+04 
 3.51152181e-01  4.02370320e+00 -3.56416755e-04  1.12893212e+04 
 3.53152181e-01  3.98608783e+00 -3.53084813e-04  1.12893212e+04 
 3.55152181e-01  3.94784301e+00 -3.49697114e-04  1.12893212e+04 
 3.57152181e-01  3.90897478e+00 -3.46254194e-04  1.12893212e+04 
 3.59152181e-01  3.86948928e+00 -3.42756596e-04  1.12893212e+04 
 3.61152181e-01  3.82939274e+00 -3.39204874e-04  1.12893212e+04 
 3.63152181e-01  3.78869149e+00 -3.35599586e-04  1.12893212e+04 
 3.65152181e-01  3.74739197e+00 -3.31941304e-04  1.12893212e+04 
 3.67152181e-01  3.70550069e+00 -3.28230604e-04  1.12893212e+04 
 3.69152181e-01  3.66302427e+00 -3.24468073e-04  1.12893212e+04 
 3.71152181e-01  3.61996941e+00 -3.20654305e-04  1.12893212e+04 
 3.73152181e-01  3.57634292e+00 -3.16789902e-04  1.12893212e+04 
 3.75152181e-01  3.53215168e+00 -3.12875473e-04  1.12893212e+04 
 3.77152181e-01  3.48740268e+00 -3.08911638e-04  1.12893212e+04 
 3.79152181e-01  3.44210297e+00 -3.04899023e-04  1.12893212e+04 
 3.81152181e-01  3.39625972e+00 -3.00838260e-04  1.12893212e+04 
 3.83152181e-01  3.34988016e+00 -2.96729992e-04  1.12893212e+04 
 3.85152181e-01  3.30297161e+00 -2.92574866e-04  1.12893212e+04 
 3.87152181e-01  3.25554148e+00 -2.88373539e-04  1.12893212e+04 
 3.89152181e-01  3.20759727e+00 -2.84126675e-04  1.12893212e+04 
 3.91152181e-01  3.15914654e+00 -2.79834944e-04  1.12893212e+04 
 3.93152181e-01  3.11019695e+00 -2.75499024e-04  1.12893212e+04 
 3.95152181e-01  3.06075622e+00 -2.71119599e-04  1.12893212e+04 
 3.97152181e-01  3.01083216e+00 -2.66697362e-04  1.12893212e+04 
 3.99152181e-01  2.96043265e+00 -2.62233010e-04  1.12893212e+04 
 4.01152181e-01  2.90956566e+00 -2.57727248e-04  1.12893212e+04 
 4.03152181e-01  2.85823921e+00 -2.53180788e-04  1.12893212e+04 
 4.05152181e-01  2.80646142e+00 -2.48594348e-04  1.12893212e+04 
 4.07152181e-01  2.75424045e+00 -2.43968652e-04  1.12893212e+04 
 4.09152181e-01  2.70158455e+00 -2.39304430e-04  1.12893212e+04 
 4.11152181e-01  2.64850205e+00 -2.34602420e-04  1.12893212e+04 
 4.13152181e-01  2.59500131e+00 -2.29863363e-04  1.12893212e+04 
 4.15152181e-01  2.54109079e+00 -2.25088008e-04  1.12893212e+04 
 4.17152181e-01  2.48677901e+00 -2.20277109e-04  1.12893212e+04 
 4.19152181e-01  2.43207453e+00 -2.15431425e-04  1.12893212e+04 
 4.21152181e-01  2.37698601e+00 -2.10551723e-04  1.12893212e+04 
 4.23152181e-01  2.32152213e+00 -2.05638772e-04  1.12893212e+04 
 4.25152181e-01  2.26569165e+00 -2.00693348e-04  1.12893212e+04 
 4.27152181e-01  2.20950339e+00 -1.95716232e-04  1.12893212e+04 
 4.29152181e-01  2.15296623e+00 -1.90708211e-04  1.12893212e+04 
 4.31152181e-01  2.09608909e+00 -1.85670074e-04  1.12893212e+04 
 4.33152181e-01  2.03888095e+00 -1.80602619e-04  1.12893212e+04 
 4.35152181e-01  1.98135085e+00 -1.75506643e-04  1.12893212e+04 
 4.37152181e-01  1.92350787e+00 -1.70382954e-04  1.12893212e+04 
 4.39152181e-01  1.86536115e+00 -1.65232359e-04  1.12893212e+04 
 4.41152181e-01  1.80691987e+00 -1.60055671e-04  1.12893212e+04 
 4.43152181e-01  1.74819325e+00 -1.54853709e-04  1.12893212e+04 
 4.45152181e-01  1.68919057e+00 -1.49627294e-04  1.12893212e+04 
 4.47152181e-01  1.62992115e+00 -1.44377251e-04  1.12893212e+04 
 4.49152181e-01  1.57039435e+00 -1.39104409e-04  1.12893212e+04 
 4.51152181e-01  1.51061956e+00 -1.33809601e-04  1.12893212e+04 
 4.53152181e-01  1.45060622e+00 -1.28493663e-04  1.12893212e+04 
 4.55152181e-01  1.39036382e+00 -1.23157435e-04  1.12893212e+04 
 4.57152181e-01  1.32990187e+00 -1.17801758e-04  1.12893212e+04 
 4.59152181e-01  1.26922991e+00 -1.12427479e-04  1.12893212e+04 
 4.61152181e-01  1.20835752e+00 -1.07035446e-04  1.12893212e+04 
 4.63152181e-01  1.14729432e+00 -1.01626511e-04  1.12893212e+04 
 4.65152181e-01  1.08604995e+00 -9.62015287e-05  1.12893212e+04 
 4.67152181e-01  1.02463408e+00 -9.07613547e-05  1.12893212e+04 
 4.69152181e-01  9.63056403e-01 -8.53068483e-05  1.12893212e+04 
 4.71152181e-01  9.01326651e-01 -7.98388710e-05  1.12893212e+04 
 4.73152181e-01  8.39454570e-01 -7.43582862e-05  1.12893212e+04 
 4.75152181e-01  7.77449929e-01 -6.88659594e-05  1.12893212e+04 
 4.77152181e-01  7.15322520e-01 -6.33627579e-05  1.12893212e+04 
 4.79152181e-01  6.53082153e-01 -5.78495506e-05  1.12893212e+04 
 4.81152181e-01  5.90738656e-01 -5.23272082e-05  1.12893212e+04 
 4.83152181e-01  5.28301876e-01 -4.67966028e-05  1.12893212e+04 
 4.85152181e-01  4.65781670e-01 -4.12586076e-05  1.12893212e+04 
 4.87152181e-01  4.03187912e-01 -3.57140972e-05  1.12893212e+04 
 4.89152181e-01  3.40530486e-01 -3.01639472e-05  1.12893212e+04 
 4.91152181e-01  2.77819286e-01 -2.46090339e-05  1.12893212e+04 
 4.93152181e-01  2.15064215e-01 -1.90502346e-05  1.12893212e+04 
 4.95152181e-01  1.52275183e-01 -1.34884270e-05  1.12893212e+04 
 4.97152181e-01  8.94621053e-02 -7.92448939e-06  1.12893212e+04 
 4.99152181e-01  2.66349003e-02 -2.35930045e-06  1.12893212e+04 
 4.99402181e-01  1.87810005e-02 -1.66360761e-06  1.12893212e+04 
 4.99902181e-01  3.07308122e-03 -2.72211340e-07  1.12893212e+04 
 4.99917806e-01  2.58220745e-03 -2.28730092e-07  1.12893212e+04 
 4.99949056e-01  1.60045983e-03 -1.41767589e-07  1.12893212e+04 
 4.99956868e-01  1.35502292e-03 -1.20026962e-07  1.12893212e+04 
 4.99972493e-01  8.64149078e-04 -7.65457081e-08  1.12893212e+04 
 4.99976400e-01  7.41430617e-04 -6.56753945e-08  1.12893212e+04 
 4.99984212e-01  4.95993692e-04 -4.39347670e-08  1.12893212e+04 
 4.99999837e-01  5.11984111e-06 -4.53511869e-10  1.12893212e+04 
 5.00000509e-01 -1.59913876e-05  1.43011870e-09  1.11818605e+04 
 5.00001853e-01 -5.82138451e-05  5.44909794e-09  1.06832078e+04 
 5.00004541e-01 -1.42658760e-04  1.78691667e-08  7.98351502e+03 
 5.00005213e-01 -1.63769989e-04  2.37934199e-08  6.88299498e+03 
 5.00006557e-01 -2.05992446e-04  4.68353734e-08  4.39822365e+03 
 5.00006893e-01 -2.16548060e-04  5.89947683e-08  3.67063161e+03 
 5.00007565e-01 -2.37659289e-04  1.10821944e-07  2.14451472e+03 
 5.00007672e-01 -2.41018156e-04  1.27737243e-07  1.88682760e+03 
 5.00007886e-01 -2.47735890e-04  1.81588470e-07  1.36427104e+03 
 5.00008204e-01 -2.57725917e-04  2.65592676e-07  9.70380361e+02 
 5.00008515e-01 -2.67515353e-04  2.75680923e-07  9.70380361e+02 
 5.00008804e-01 -2.76581816e-04  2.85024128e-07  9.70380361e+02 
 5.00009167e-01 -2.87987902e-04  2.96778371e-07  9.70380361e+02 
 5.00009893e-01 -3.10800075e-04  3.20286856e-07  9.70380361e+02 
 5.00011345e-01 -3.56424420e-04  3.67303828e-07  9.70380361e+02 
 5.00014250e-01 -4.47673111e-04  4.61337770e-07  9.70380361e+02 
 5.00020059e-01 -6.30170492e-04  6.49405654e-07  9.70380361e+02 
 5.00031677e-01 -9.95165252e-04  1.02554142e-06  9.70380361e+02 
 5.00054913e-01 -1.72515475e-03  1.77781293e-06  9.70380361e+02 
 5.00101386e-01 -3.18513363e-03  3.28235583e-06  9.70380361e+02 
 5.00194331e-01 -6.10509044e-03  6.29144065e-06  9.70380361e+02 
 5.00380221e-01 -1.19449968e-02  1.23096028e-05  9.70380361e+02 
 5.00752002e-01 -2.36247528e-02  2.43458686e-05  9.70380361e+02 
