 time            vin             i(v1)           l0             
 2.00000000e-05  6.28318529e-04 -1.25663706e-07  5.00000000e+03 
 4.00000000e-05  1.25663705e-03 -2.51327411e-07  5.00000000e+03 
 8.00000000e-05  2.51327402e-03 -5.02654806e-07  5.00000000e+03 
 1.60000000e-04  5.02654740e-03 -1.00530948e-06  5.00000000e+03 
 3.20000000e-04  1.00530897e-02 -2.01061795e-06  5.00000000e+03 
 6.40000000e-04  2.01061388e-02 -4.02122778e-06  5.00000000e+03 
 1.28000000e-03  4.02119525e-02 -8.04239053e-06  5.00000000e+03 
 2.00000000e-03  6.28301994e-02 -1.25660399e-05  5.00000000e+03 
 2.12800000e-03  6.68510998e-02 -1.33702200e-05  5.00000000e+03 
 2.38400000e-03  7.48927681e-02 -1.49785537e-05  5.00000000e+03 
 2.89600000e-03  9.09755027e-02 -1.81951006e-05  5.00000000e+03 
 3.92000000e-03  1.23137981e-01 -2.46275963e-05  5.00000001e+03 
 5.92000000e-03  1.85939401e-01 -3.71878804e-05  5.00000001e+03 
 7.92000000e-03  2.48711460e-01 -4.97422921e-05  5.00000001e+03 
 9.92000000e-03  3.11444243e-01 -6.22888489e-05  5.00000001e+03 
 1.19200000e-02  3.74127847e-01 -7.48255695e-05  5.00000001e+03 
 1.39200000e-02  4.36752371e-01 -8.73504743e-05  5.00000001e+03 
 1.59200000e-02  4.99307926e-01 -9.98615856e-05  5.00000001e+03 
 1.79200000e-02  5.61784636e-01 -1.12356927e-04  5.00000001e+03 
 1.99200000e-02  6.24172633e-01 -1.24834527e-04  5.00000002e+03 
 2.19200000e-02  6.86462065e-01 -1.37292413e-04  5.00000003e+03 
 2.39200000e-02  7.48643098e-01 -1.49728619e-04  5.00000003e+03 
 2.59200000e-02  8.10705911e-01 -1.62141182e-04  5.00000003e+03 
 2.79200000e-02  8.72640704e-01 -1.74528141e-04  5.00000003e+03 
 2.99200000e-02  9.34437698e-01 -1.86887539e-04  5.00000003e+03 
 3.19200000e-02  9.96087132e-01 -1.99217426e-04  5.00000004e+03 
 3.39200000e-02  1.05757927e+00 -2.11515854e-04  5.00000005e+03 
 3.59200000e-02  1.11890441e+00 -2.23780881e-04  5.00000006e+03 
 3.79200000e-02  1.18005286e+00 -2.36010570e-04  5.00000006e+03 
 3.99200000e-02  1.24101496e+00 -2.48202991e-04  5.00000007e+03 
 4.19200000e-02  1.30178110e+00 -2.60356217e-04  5.00000008e+03 
 4.39200000e-02  1.36234167e+00 -2.72468330e-04  5.00000008e+03 
 4.59200000e-02  1.42268710e+00 -2.84537418e-04  5.00000008e+03 
 4.79200000e-02  1.48280788e+00 -2.96561573e-04  5.00000009e+03 
 4.99200000e-02  1.54269451e+00 -3.08538898e-04  5.00000009e+03 
 5.19200000e-02  1.60233753e+00 -3.20467502e-04  5.00000009e+03 
 5.39200000e-02  1.66172752e+00 -3.32345499e-04  5.00000009e+03 
 5.59200000e-02  1.72085510e+00 -3.44171016e-04  5.00000009e+03 
 5.79200000e-02  1.77971094e+00 -3.55942184e-04  5.00000010e+03 
 5.99200000e-02  1.83828575e+00 -3.67657143e-04  5.00000011e+03 
 6.19200000e-02  1.89657027e+00 -3.79314046e-04  5.00000012e+03 
 6.39200000e-02  1.95455529e+00 -3.90911051e-04  5.00000012e+03 
 6.59200000e-02  2.01223167e+00 -4.02446326e-04  5.00000012e+03 
 6.79200000e-02  2.06959030e+00 -4.13918050e-04  5.00000014e+03 
 6.99200000e-02  2.12662211e+00 -4.25324412e-04  5.00000014e+03 
 7.19200000e-02  2.18331811e+00 -4.36663610e-04  5.00000015e+03 
 7.39200000e-02  2.23966933e+00 -4.47933853e-04  5.00000017e+03 
 7.59200000e-02  2.29566688e+00 -4.59133362e-04  5.00000018e+03 
 7.79200000e-02  2.35130192e+00 -4.70260369e-04  5.00000020e+03 
 7.99200000e-02  2.40656567e+00 -4.81313116e-04  5.00000020e+03 
 8.19200000e-02  2.46144939e+00 -4.92289858e-04  5.00000022e+03 
 8.39200000e-02  2.51594441e+00 -5.03188862e-04  5.00000023e+03 
 8.59200000e-02  2.57004214e+00 -5.14008408e-04  5.00000023e+03 
 8.79200000e-02  2.62373404e+00 -5.24746785e-04  5.00000024e+03 
 8.99200000e-02  2.67701161e+00 -5.35402297e-04  5.00000025e+03 
 9.19200000e-02  2.72986645e+00 -5.45973263e-04  5.00000027e+03 
 9.39200000e-02  2.78229022e+00 -5.56458015e-04  5.00000028e+03 
 9.59200000e-02  2.83427462e+00 -5.66854896e-04  5.00000028e+03 
 9.79200000e-02  2.88581147e+00 -5.77162263e-04  5.00000029e+03 
 9.99200000e-02  2.93689261e+00 -5.87378490e-04  5.00000030e+03 
 1.01920000e-01  2.98750998e+00 -5.97501962e-04  5.00000031e+03 
 1.03920000e-01  3.03765559e+00 -6.07531082e-04  5.00000032e+03 
 1.05920000e-01  3.08732152e+00 -6.17464265e-04  5.00000034e+03 
 1.07920000e-01  3.13649992e+00 -6.27299942e-04  5.00000036e+03 
 1.09920000e-01  3.18518304e+00 -6.37036563e-04  5.00000037e+03 
 1.11920000e-01  3.23336317e+00 -6.46672590e-04  5.00000037e+03 
 1.13920000e-01  3.28103272e+00 -6.56206498e-04  5.00000038e+03 
 1.15920000e-01  3.32818416e+00 -6.65636784e-04  5.00000039e+03 
 1.17920000e-01  3.37481004e+00 -6.74961959e-04  5.00000039e+03 
 1.19920000e-01  3.42090300e+00 -6.84180548e-04  5.00000041e+03 
 1.21920000e-01  3.46645576e+00 -6.93291097e-04  5.00000042e+03 
 1.23920000e-01  3.51146112e+00 -7.02292168e-04  5.00000042e+03 
 1.25920000e-01  3.55591198e+00 -7.11182338e-04  5.00000044e+03 
 1.27920000e-01  3.59980133e+00 -7.19960205e-04  5.00000045e+03 
 1.29920000e-01  3.64312222e+00 -7.28624379e-04  5.00000047e+03 
 1.31920000e-01  3.68586782e+00 -7.37173496e-04  5.00000050e+03 
 1.33920000e-01  3.72803139e+00 -7.45606206e-04  5.00000050e+03 
 1.35920000e-01  3.76960625e+00 -7.53921176e-04  5.00000051e+03 
 1.37920000e-01  3.81058584e+00 -7.62117092e-04  5.00000053e+03 
 1.39920000e-01  3.85096371e+00 -7.70192661e-04  5.00000054e+03 
 1.41920000e-01  3.89073346e+00 -7.78146608e-04  5.00000056e+03 
 1.43920000e-01  3.92988881e+00 -7.85977676e-04  5.00000057e+03 
 1.45920000e-01  3.96842360e+00 -7.93684631e-04  5.00000058e+03 
 1.47920000e-01  4.00633172e+00 -8.01266254e-04  5.00000058e+03 
 1.49920000e-01  4.04360720e+00 -8.08721348e-04  5.00000059e+03 
 1.51920000e-01  4.08024414e+00 -8.16048733e-04  5.00000061e+03 
 1.53920000e-01  4.11623677e+00 -8.23247255e-04  5.00000062e+03 
 1.55920000e-01  4.15157939e+00 -8.30315776e-04  5.00000064e+03 
 1.57920000e-01  4.18626643e+00 -8.37253181e-04  5.00000065e+03 
 1.59920000e-01  4.22029241e+00 -8.44058374e-04  5.00000067e+03 
 1.61920000e-01  4.25365196e+00 -8.50730280e-04  5.00000069e+03 
 1.63920000e-01  4.28633981e+00 -8.57267846e-04  5.00000070e+03 
 1.65920000e-01  4.31835080e+00 -8.63670040e-04  5.00000072e+03 
 1.67920000e-01  4.34967986e+00 -8.69935850e-04  5.00000073e+03 
 1.69920000e-01  4.38032207e+00 -8.76064287e-04  5.00000075e+03 
 1.71920000e-01  4.41027257e+00 -8.82054383e-04  5.00000076e+03 
 1.73920000e-01  4.43952663e+00 -8.87905193e-04  5.00000078e+03 
 1.75920000e-01  4.46807965e+00 -8.93615792e-04  5.00000080e+03 
 1.77920000e-01  4.49592710e+00 -8.99185278e-04  5.00000081e+03 
 1.79920000e-01  4.52306459e+00 -9.04612773e-04  5.00000083e+03 
 1.81920000e-01  4.54948784e+00 -9.09897419e-04  5.00000084e+03 
 1.83920000e-01  4.57519267e+00 -9.15038382e-04  5.00000086e+03 
 1.85920000e-01  4.60017503e+00 -9.20034849e-04  5.00000087e+03 
 1.87920000e-01  4.62443096e+00 -9.24886031e-04  5.00000090e+03 
 1.89920000e-01  4.64795664e+00 -9.29591162e-04  5.00000092e+03 
 1.91920000e-01  4.67074836e+00 -9.34149500e-04  5.00000094e+03 
 1.93920000e-01  4.69280251e+00 -9.38560326e-04  5.00000097e+03 
 1.95920000e-01  4.71411562e+00 -9.42822943e-04  5.00000098e+03 
 1.97920000e-01  4.73468431e+00 -9.46936677e-04  5.00000100e+03 
 1.99920000e-01  4.75450534e+00 -9.50900879e-04  5.00000102e+03 
 2.01920000e-01  4.77357557e+00 -9.54714923e-04  5.00000103e+03 
 2.03920000e-01  4.79189201e+00 -9.58378206e-04  5.00000105e+03 
 2.05920000e-01  4.80945175e+00 -9.61890150e-04  5.00000106e+03 
 2.07920000e-01  4.82625202e+00 -9.65250200e-04  5.00000108e+03 
 2.09920000e-01  4.84229017e+00 -9.68457827e-04  5.00000109e+03 
 2.11920000e-01  4.85756366e+00 -9.71512522e-04  5.00000111e+03 
 2.13920000e-01  4.87207009e+00 -9.74413804e-04  5.00000113e+03 
 2.15920000e-01  4.88580717e+00 -9.77161216e-04  5.00000114e+03 
 2.17920000e-01  4.89877272e+00 -9.79754322e-04  5.00000116e+03 
 2.19920000e-01  4.91096469e+00 -9.82192712e-04  5.00000118e+03 
 2.21920000e-01  4.92238117e+00 -9.84476002e-04  5.00000120e+03 
 2.23920000e-01  4.93302035e+00 -9.86603834e-04  5.00000122e+03 
 2.25920000e-01  4.94288054e+00 -9.88575869e-04  5.00000123e+03 
 2.27920000e-01  4.95196020e+00 -9.90391797e-04  5.00000125e+03 
 2.29920000e-01  4.96025788e+00 -9.92051330e-04  5.00000127e+03 
 2.31920000e-01  4.96777229e+00 -9.93554207e-04  5.00000128e+03 
 2.33920000e-01  4.97450222e+00 -9.94900191e-04  5.00000130e+03 
 2.35920000e-01  4.98044662e+00 -9.96089068e-04  5.00000131e+03 
 2.37920000e-01  4.98560455e+00 -9.97120651e-04  5.00000133e+03 
 2.39920000e-01  4.98997520e+00 -9.97994777e-04  5.00000134e+03 
 2.41920000e-01  4.99355787e+00 -9.98711308e-04  5.00000136e+03 
 2.43920000e-01  4.99635201e+00 -9.99270130e-04  5.00000138e+03 
 2.45920000e-01  4.99835716e+00 -9.99671155e-04  5.00000141e+03 
 2.47920000e-01  4.99957301e+00 -9.99914322e-04  5.00000142e+03 
 2.49920000e-01  4.99999937e+00 -9.99999591e-04  5.00000144e+03 
 2.51920000e-01  4.99963617e+00 -9.99926949e-04  5.00000145e+03 
 2.53920000e-01  4.99848347e+00 -9.99696404e-04  5.00000148e+03 
 2.55920000e-01  4.99654146e+00 -9.99307997e-04  5.00000150e+03 
 2.57920000e-01  4.99381043e+00 -9.98761788e-04  5.00000152e+03 
 2.59920000e-01  4.99029082e+00 -9.98057863e-04  5.00000153e+03 
 2.61920000e-01  4.98598319e+00 -9.97196334e-04  5.00000155e+03 
 2.63920000e-01  4.98088821e+00 -9.96177336e-04  5.00000156e+03 
 2.65920000e-01  4.97500669e+00 -9.95001028e-04  5.00000159e+03 
 2.67920000e-01  4.96833956e+00 -9.93667598e-04  5.00000161e+03 
 2.69920000e-01  4.96088788e+00 -9.92177258e-04  5.00000163e+03 
 2.71920000e-01  4.95265281e+00 -9.90530240e-04  5.00000165e+03 
 2.73920000e-01  4.94363566e+00 -9.88726804e-04  5.00000168e+03 
 2.75920000e-01  4.93383785e+00 -9.86767239e-04  5.00000170e+03 
 2.77920000e-01  4.92326093e+00 -9.84651853e-04  5.00000172e+03 
 2.79920000e-01  4.91190657e+00 -9.82380979e-04  5.00000173e+03 
 2.81920000e-01  4.89977657e+00 -9.79954976e-04  5.00000175e+03 
 2.83920000e-01  4.88687283e+00 -9.77374226e-04  5.00000177e+03 
 2.85920000e-01  4.87319740e+00 -9.74639138e-04  5.00000178e+03 
 2.87920000e-01  4.85875244e+00 -9.71750142e-04  5.00000180e+03 
 2.89920000e-01  4.84354022e+00 -9.68707695e-04  5.00000183e+03 
 2.91920000e-01  4.82756315e+00 -9.65512279e-04  5.00000184e+03 
 2.93920000e-01  4.81082375e+00 -9.62164396e-04  5.00000187e+03 
 2.95920000e-01  4.79332467e+00 -9.58664577e-04  5.00000189e+03 
 2.97920000e-01  4.77506867e+00 -9.55013374e-04  5.00000191e+03 
 2.99920000e-01  4.75605863e+00 -9.51211363e-04  5.00000193e+03 
 3.01920000e-01  4.73629755e+00 -9.47259144e-04  5.00000195e+03 
 3.03920000e-01  4.71578855e+00 -9.43157344e-04  5.00000197e+03 
 3.05920000e-01  4.69453488e+00 -9.38906608e-04  5.00000198e+03 
 3.07920000e-01  4.67253988e+00 -9.34507606e-04  5.00000201e+03 
 3.09920000e-01  4.64980704e+00 -9.29961035e-04  5.00000203e+03 
 3.11920000e-01  4.62633994e+00 -9.25267614e-04  5.00000205e+03 
 3.13920000e-01  4.60214228e+00 -9.20428081e-04  5.00000207e+03 
 3.15920000e-01  4.57721790e+00 -9.15443201e-04  5.00000209e+03 
 3.17920000e-01  4.55157072e+00 -9.10313764e-04  5.00000211e+03 
 3.19920000e-01  4.52520479e+00 -9.05040577e-04  5.00000213e+03 
 3.21920000e-01  4.49812428e+00 -8.99624472e-04  5.00000216e+03 
 3.23920000e-01  4.47033347e+00 -8.94066307e-04  5.00000219e+03 
 3.25920000e-01  4.44183673e+00 -8.88366960e-04  5.00000220e+03 
 3.27920000e-01  4.41263858e+00 -8.82527328e-04  5.00000223e+03 
 3.29920000e-01  4.38274363e+00 -8.76548335e-04  5.00000225e+03 
 3.31920000e-01  4.35215658e+00 -8.70430927e-04  5.00000226e+03 
 3.33920000e-01  4.32088228e+00 -8.64176067e-04  5.00000228e+03 
 3.35920000e-01  4.28892567e+00 -8.57784743e-04  5.00000230e+03 
 3.37920000e-01  4.25629178e+00 -8.51257964e-04  5.00000233e+03 
 3.39920000e-01  4.22298577e+00 -8.44596763e-04  5.00000234e+03 
 3.41920000e-01  4.18901291e+00 -8.37802191e-04  5.00000236e+03 
 3.43920000e-01  4.15437855e+00 -8.30875320e-04  5.00000237e+03 
 3.45920000e-01  4.11908817e+00 -8.23817245e-04  5.00000239e+03 
 3.47920000e-01  4.08314734e+00 -8.16629079e-04  5.00000240e+03 
 3.49920000e-01  4.04656173e+00 -8.09311958e-04  5.00000242e+03 
 3.51920000e-01  4.00933712e+00 -8.01867037e-04  5.00000243e+03 
 3.53920000e-01  3.97147939e+00 -7.94295492e-04  5.00000245e+03 
 3.55920000e-01  3.93299451e+00 -7.86598518e-04  5.00000247e+03 
 3.57920000e-01  3.89388858e+00 -7.78777329e-04  5.00000250e+03 
 3.59920000e-01  3.85416775e+00 -7.70833164e-04  5.00000253e+03 
 3.61920000e-01  3.81383830e+00 -7.62767276e-04  5.00000254e+03 
 3.63920000e-01  3.77290661e+00 -7.54580939e-04  5.00000256e+03 
 3.65920000e-01  3.73137913e+00 -7.46275445e-04  5.00000257e+03 
 3.67920000e-01  3.68926242e+00 -7.37852106e-04  5.00000258e+03 
 3.69920000e-01  3.64656313e+00 -7.29312252e-04  5.00000259e+03 
 3.71920000e-01  3.60328801e+00 -7.20657230e-04  5.00000260e+03 
 3.73920000e-01  3.55944389e+00 -7.11888408e-04  5.00000262e+03 
 3.75920000e-01  3.51503769e+00 -7.03007172e-04  5.00000263e+03 
 3.77920000e-01  3.47007642e+00 -6.94014923e-04  5.00000264e+03 
 3.79920000e-01  3.42456720e+00 -6.84913080e-04  5.00000264e+03 
 3.81920000e-01  3.37851719e+00 -6.75703083e-04  5.00000265e+03 
 3.83920000e-01  3.33193367e+00 -6.66386383e-04  5.00000266e+03 
 3.85920000e-01  3.28482400e+00 -6.56964453e-04  5.00000267e+03 
 3.87920000e-01  3.23719563e+00 -6.47438781e-04  5.00000269e+03 
 3.89920000e-01  3.18905606e+00 -6.37810871e-04  5.00000269e+03 
 3.91920000e-01  3.14041290e+00 -6.28082245e-04  5.00000269e+03 
 3.93920000e-01  3.09127383e+00 -6.18254436e-04  5.00000270e+03 
 3.95920000e-01  3.04164662e+00 -6.08328997e-04  5.00000271e+03 
 3.97920000e-01  2.99153910e+00 -5.98307496e-04  5.00000272e+03 
 3.99920000e-01  2.94095917e+00 -5.88191516e-04  5.00000273e+03 
 4.01920000e-01  2.88991484e+00 -5.77982653e-04  5.00000275e+03 
 4.03920000e-01  2.83841415e+00 -5.67682519e-04  5.00000276e+03 
 4.05920000e-01  2.78646525e+00 -5.57292743e-04  5.00000277e+03 
 4.07920000e-01  2.73407633e+00 -5.46814964e-04  5.00000278e+03 
 4.09920000e-01  2.68125566e+00 -5.36250837e-04  5.00000278e+03 
 4.11920000e-01  2.62801160e+00 -5.25602030e-04  5.00000279e+03 
 4.13920000e-01  2.57435254e+00 -5.14870224e-04  5.00000279e+03 
 4.15920000e-01  2.52028697e+00 -5.04057114e-04  5.00000280e+03 
 4.17920000e-01  2.46582341e+00 -4.93164407e-04  5.00000280e+03 
 4.19920000e-01  2.41097047e+00 -4.82193825e-04  5.00000281e+03 
 4.21920000e-01  2.35573680e+00 -4.71147098e-04  5.00000281e+03 
 4.23920000e-01  2.30013114e+00 -4.60025972e-04  5.00000281e+03 
 4.25920000e-01  2.24416227e+00 -4.48832203e-04  5.00000281e+03 
 4.27920000e-01  2.18783901e+00 -4.37567557e-04  5.00000282e+03 
 4.29920000e-01  2.13117027e+00 -4.26233814e-04  5.00000283e+03 
 4.31920000e-01  2.07416499e+00 -4.14832765e-04  5.00000284e+03 
 4.33920000e-01  2.01683218e+00 -4.03366207e-04  5.00000285e+03 
 4.35920000e-01  1.95918088e+00 -3.91835954e-04  5.00000286e+03 
 4.37920000e-01  1.90122021e+00 -3.80243826e-04  5.00000287e+03 
 4.39920000e-01  1.84295931e+00 -3.68591652e-04  5.00000288e+03 
 4.41920000e-01  1.78440739e+00 -3.56881274e-04  5.00000289e+03 
 4.43920000e-01  1.72557369e+00 -3.45114540e-04  5.00000290e+03 
 4.45920000e-01  1.66646751e+00 -3.33293308e-04  5.00000292e+03 
 4.47920000e-01  1.60709816e+00 -3.21419446e-04  5.00000293e+03 
 4.49920000e-01  1.54747504e+00 -3.09494828e-04  5.00000294e+03 
 4.51920000e-01  1.48760756e+00 -2.97521338e-04  5.00000294e+03 
 4.53920000e-01  1.42750516e+00 -2.85500865e-04  5.00000295e+03 
 4.55920000e-01  1.36717734e+00 -2.73435309e-04  5.00000295e+03 
 4.57920000e-01  1.30663364e+00 -2.61326574e-04  5.00000295e+03 
 4.59920000e-01  1.24588359e+00 -2.49176573e-04  5.00000295e+03 
 4.61920000e-01  1.18493681e+00 -2.36987223e-04  5.00000297e+03 
 4.63920000e-01  1.12380292e+00 -2.24760451e-04  5.00000297e+03 
 4.65920000e-01  1.06249156e+00 -2.12498187e-04  5.00000297e+03 
 4.67920000e-01  1.00101242e+00 -2.00202366e-04  5.00000297e+03 
 4.69920000e-01  9.39375212e-01 -1.87874932e-04  5.00000297e+03 
 4.71920000e-01  8.77589664e-01 -1.75517829e-04  5.00000297e+03 
 4.73920000e-01  8.15665535e-01 -1.63133011e-04  5.00000298e+03 
 4.75920000e-01  7.53612603e-01 -1.50722431e-04  5.00000299e+03 
 4.77920000e-01  6.91440667e-01 -1.38288051e-04  5.00000299e+03 
 4.79920000e-01  6.29159545e-01 -1.25831834e-04  5.00000300e+03 
 4.81920000e-01  5.66779071e-01 -1.13355747e-04  5.00000299e+03 
 4.83920000e-01  5.04309095e-01 -1.00861759e-04  5.00000299e+03 
 4.85920000e-01  4.41759484e-01 -8.83518444e-05  5.00000299e+03 
 4.87920000e-01  3.79140114e-01 -7.58279777e-05  5.00000299e+03 
 4.89920000e-01  3.16460873e-01 -6.32921370e-05  5.00000299e+03 
 4.91920000e-01  2.53731659e-01 -5.07463016e-05  5.00000300e+03 
 4.93920000e-01  1.90962378e-01 -3.81924528e-05  5.00000300e+03 
 4.95920000e-01  1.28162942e-01 -2.56325731e-05  5.00000300e+03 
 4.97920000e-01  6.53432671e-02 -1.30686456e-05  5.00000301e+03 
 4.99920000e-01  2.51327402e-03 -5.02654487e-07  5.00000301e+03 
 5.01920000e-01 -6.03171159e-02  1.20634160e-05  5.00000302e+03 
 5.03920000e-01 -1.23137981e-01  2.46275815e-05  5.00000301e+03 
 5.05920000e-01 -1.85939401e-01  3.71878580e-05  5.00000301e+03 
 5.07920000e-01 -2.48711460e-01  4.97422622e-05  5.00000301e+03 
 5.09920000e-01 -3.11444243e-01  6.22888115e-05  5.00000301e+03 
 5.11920000e-01 -3.74127847e-01  7.48255247e-05  5.00000301e+03 
 5.13920000e-01 -4.36752371e-01  8.73504219e-05  5.00000301e+03 
 5.15920000e-01 -4.99307926e-01  9.98615256e-05  5.00000301e+03 
 5.17920000e-01 -5.61784636e-01  1.12356860e-04  5.00000301e+03 
 5.19920000e-01 -6.24172633e-01  1.24834452e-04  5.00000301e+03 
 5.21920000e-01 -6.86462065e-01  1.37292331e-04  5.00000301e+03 
 5.23920000e-01 -7.48643098e-01  1.49728530e-04  5.00000300e+03 
 5.25920000e-01 -8.10705911e-01  1.62141086e-04  5.00000299e+03 
 5.27920000e-01 -8.72640704e-01  1.74528037e-04  5.00000299e+03 
 5.29920000e-01 -9.34437698e-01  1.86887429e-04  5.00000299e+03 
 5.31920000e-01 -9.96087132e-01  1.99217308e-04  5.00000299e+03 
 5.33920000e-01 -1.05757927e+00  2.11515729e-04  5.00000299e+03 
 5.35920000e-01 -1.11890441e+00  2.23780750e-04  5.00000298e+03 
 5.37920000e-01 -1.18005286e+00  2.36010432e-04  5.00000298e+03 
 5.39920000e-01 -1.24101496e+00  2.48202846e-04  5.00000298e+03 
 5.41920000e-01 -1.30178110e+00  2.60356066e-04  5.00000297e+03 
 5.43920000e-01 -1.36234167e+00  2.72468173e-04  5.00000296e+03 
 5.45920000e-01 -1.42268710e+00  2.84537254e-04  5.00000295e+03 
 5.47920000e-01 -1.48280788e+00  2.96561403e-04  5.00000295e+03 
 5.49920000e-01 -1.54269451e+00  3.08538722e-04  5.00000294e+03 
 5.51920000e-01 -1.60233753e+00  3.20467319e-04  5.00000294e+03 
 5.53920000e-01 -1.66172752e+00  3.32345310e-04  5.00000295e+03 
 5.55920000e-01 -1.72085510e+00  3.44170819e-04  5.00000295e+03 
 5.57920000e-01 -1.77971094e+00  3.55941981e-04  5.00000294e+03 
 5.59920000e-01 -1.83828575e+00  3.67656935e-04  5.00000294e+03 
 5.61920000e-01 -1.89657027e+00  3.79313832e-04  5.00000293e+03 
 5.63920000e-01 -1.95455529e+00  3.90910832e-04  5.00000292e+03 
 5.65920000e-01 -2.01223167e+00  4.02446102e-04  5.00000292e+03 
 5.67920000e-01 -2.06959030e+00  4.13917821e-04  5.00000290e+03 
 5.69920000e-01 -2.12662211e+00  4.25324179e-04  5.00000288e+03 
 5.71920000e-01 -2.18331811e+00  4.36663373e-04  5.00000287e+03 
 5.73920000e-01 -2.23966933e+00  4.47933612e-04  5.00000286e+03 
 5.75920000e-01 -2.29566688e+00  4.59133117e-04  5.00000285e+03 
 5.77920000e-01 -2.35130192e+00  4.70260120e-04  5.00000284e+03 
 5.79920000e-01 -2.40656567e+00  4.81312863e-04  5.00000284e+03 
 5.81920000e-01 -2.46144939e+00  4.92289601e-04  5.00000283e+03 
 5.83920000e-01 -2.51594441e+00  5.03188600e-04  5.00000283e+03 
