 time            vin             i(v1)           l0             
 2.00000000e-05  6.28318529e-04 -1.25663706e-07  5.00000000e+03 
 4.00000000e-05  1.25663705e-03 -2.51327411e-07  5.00000000e+03 
 8.00000000e-05  2.51327402e-03 -5.02654806e-07  5.00000000e+03 
 1.60000000e-04  5.02654740e-03 -1.00530948e-06  5.00000000e+03 
 3.20000000e-04  1.00530897e-02 -2.01061795e-06  5.00000002e+03 
 6.40000000e-04  2.01061388e-02 -4.02122775e-06  5.00000006e+03 
 1.28000000e-03  4.02119525e-02 -8.04239027e-06  5.00000026e+03 
 2.00000000e-03  6.28301994e-02 -1.25660387e-05  5.00000063e+03 
 2.12800000e-03  6.68510998e-02 -1.33702181e-05  5.00000071e+03 
 2.38400000e-03  7.48927681e-02 -1.49785511e-05  5.00000090e+03 
 2.89600000e-03  9.09755027e-02 -1.81950961e-05  5.00000132e+03 
 3.92000000e-03  1.23137981e-01 -2.46275858e-05  5.00000242e+03 
 5.92000000e-03  1.85939401e-01 -3.71878472e-05  5.00000551e+03 
 7.92000000e-03  2.48711460e-01 -4.97422050e-05  5.00000985e+03 
 9.92000000e-03  3.11444243e-01 -6.22886705e-05  5.00001546e+03 
 1.19200000e-02  3.74127847e-01 -7.48252530e-05  5.00002231e+03 
 1.39200000e-02  4.36752371e-01 -8.73499634e-05  5.00003042e+03 
 1.59200000e-02  4.99307926e-01 -9.98608147e-05  5.00003978e+03 
 1.79200000e-02  5.61784636e-01 -1.12355822e-04  5.00005039e+03 
 1.99200000e-02  6.24172633e-01 -1.24833003e-04  5.00006225e+03 
 2.19200000e-02  6.86462065e-01 -1.37290377e-04  5.00007536e+03 
 2.39200000e-02  7.48643098e-01 -1.49725970e-04  5.00008971e+03 
 2.59200000e-02  8.10705911e-01 -1.62137807e-04  5.00010530e+03 
 2.79200000e-02  8.72640704e-01 -1.74523920e-04  5.00012214e+03 
 2.99200000e-02  9.34437698e-01 -1.86882345e-04  5.00014021e+03 
 3.19200000e-02  9.96087132e-01 -1.99211120e-04  5.00015951e+03 
 3.39200000e-02  1.05757927e+00 -2.11508290e-04  5.00018005e+03 
 3.59200000e-02  1.11890441e+00 -2.23771905e-04  5.00020181e+03 
 3.79200000e-02  1.18005286e+00 -2.36000019e-04  5.00022480e+03 
 3.99200000e-02  1.24101496e+00 -2.48190693e-04  5.00024901e+03 
 4.19200000e-02  1.30178110e+00 -2.60341993e-04  5.00027444e+03 
 4.39200000e-02  1.36234167e+00 -2.72451993e-04  5.00030108e+03 
 4.59200000e-02  1.42268710e+00 -2.84518772e-04  5.00032893e+03 
 4.79200000e-02  1.48280788e+00 -2.96540417e-04  5.00035799e+03 
 4.99200000e-02  1.54269451e+00 -3.08515020e-04  5.00038824e+03 
 5.19200000e-02  1.60233753e+00 -3.20440685e-04  5.00041969e+03 
 5.39200000e-02  1.66172752e+00 -3.32315519e-04  5.00045233e+03 
 5.59200000e-02  1.72085510e+00 -3.44137641e-04  5.00048616e+03 
 5.79200000e-02  1.77971094e+00 -3.55905176e-04  5.00052116e+03 
 5.99200000e-02  1.83828575e+00 -3.67616258e-04  5.00055734e+03 
 6.19200000e-02  1.89657027e+00 -3.79269032e-04  5.00059469e+03 
 6.39200000e-02  1.95455529e+00 -3.90861651e-04  5.00063320e+03 
 6.59200000e-02  2.01223167e+00 -4.02392276e-04  5.00067287e+03 
 6.79200000e-02  2.06959030e+00 -4.13859082e-04  5.00071369e+03 
 6.99200000e-02  2.12662211e+00 -4.25260250e-04  5.00075565e+03 
 7.19200000e-02  2.18331811e+00 -4.36593975e-04  5.00079875e+03 
 7.39200000e-02  2.23966933e+00 -4.47858460e-04  5.00084298e+03 
 7.59200000e-02  2.29566688e+00 -4.59051922e-04  5.00088834e+03 
 7.79200000e-02  2.35130192e+00 -4.70172587e-04  5.00093481e+03 
 7.99200000e-02  2.40656567e+00 -4.81218693e-04  5.00098238e+03 
 8.19200000e-02  2.46144939e+00 -4.92188491e-04  5.00103106e+03 
 8.39200000e-02  2.51594441e+00 -5.03080244e-04  5.00108084e+03 
 8.59200000e-02  2.57004214e+00 -5.13892227e-04  5.00113170e+03 
 8.79200000e-02  2.62373404e+00 -5.24622729e-04  5.00118364e+03 
 8.99200000e-02  2.67701161e+00 -5.35270050e-04  5.00123664e+03 
 9.19200000e-02  2.72986645e+00 -5.45832505e-04  5.00129071e+03 
 9.39200000e-02  2.78229022e+00 -5.56308422e-04  5.00134583e+03 
 9.59200000e-02  2.83427462e+00 -5.66696143e-04  5.00140200e+03 
 9.79200000e-02  2.88581147e+00 -5.76994024e-04  5.00145920e+03 
 9.99200000e-02  2.93689261e+00 -5.87200437e-04  5.00151743e+03 
 1.01920000e-01  2.98750998e+00 -5.97313765e-04  5.00157667e+03 
 1.03920000e-01  3.03765559e+00 -6.07332410e-04  5.00163692e+03 
 1.05920000e-01  3.08732152e+00 -6.17254787e-04  5.00169817e+03 
 1.07920000e-01  3.13649992e+00 -6.27079326e-04  5.00176041e+03 
 1.09920000e-01  3.18518304e+00 -6.36804474e-04  5.00182363e+03 
 1.11920000e-01  3.23336317e+00 -6.46428694e-04  5.00188781e+03 
 1.13920000e-01  3.28103272e+00 -6.55950463e-04  5.00195296e+03 
 1.15920000e-01  3.32818416e+00 -6.65368278e-04  5.00201905e+03 
 1.17920000e-01  3.37481004e+00 -6.74680649e-04  5.00208608e+03 
 1.19920000e-01  3.42090300e+00 -6.83886105e-04  5.00215404e+03 
 1.21920000e-01  3.46645576e+00 -6.92983192e-04  5.00222291e+03 
 1.23920000e-01  3.51146112e+00 -7.01970473e-04  5.00229269e+03 
 1.25920000e-01  3.55591198e+00 -7.10846528e-04  5.00236336e+03 
 1.27920000e-01  3.59980133e+00 -7.19609956e-04  5.00243492e+03 
 1.29920000e-01  3.64312222e+00 -7.28259373e-04  5.00250735e+03 
 1.31920000e-01  3.68586782e+00 -7.36793414e-04  5.00258064e+03 
 1.33920000e-01  3.72803139e+00 -7.45210732e-04  5.00265478e+03 
 1.35920000e-01  3.76960625e+00 -7.53509998e-04  5.00272975e+03 
 1.37920000e-01  3.81058584e+00 -7.61689904e-04  5.00280556e+03 
 1.39920000e-01  3.85096371e+00 -7.69749159e-04  5.00288217e+03 
 1.41920000e-01  3.89073346e+00 -7.77686492e-04  5.00295959e+03 
 1.43920000e-01  3.92988881e+00 -7.85500651e-04  5.00303779e+03 
 1.45920000e-01  3.96842360e+00 -7.93190405e-04  5.00311678e+03 
 1.47920000e-01  4.00633172e+00 -8.00754542e-04  5.00319653e+03 
 1.49920000e-01  4.04360720e+00 -8.08191870e-04  5.00327702e+03 
 1.51920000e-01  4.08024414e+00 -8.15501217e-04  5.00335826e+03 
 1.53920000e-01  4.11623677e+00 -8.22681433e-04  5.00344023e+03 
 1.55920000e-01  4.15157939e+00 -8.29731386e-04  5.00352291e+03 
 1.57920000e-01  4.18626643e+00 -8.36649966e-04  5.00360628e+03 
 1.59920000e-01  4.22029241e+00 -8.43436086e-04  5.00369035e+03 
 1.61920000e-01  4.25365196e+00 -8.50088678e-04  5.00377509e+03 
 1.63920000e-01  4.28633981e+00 -8.56606694e-04  5.00386049e+03 
 1.65920000e-01  4.31835080e+00 -8.62989110e-04  5.00394654e+03 
 1.67920000e-01  4.34967986e+00 -8.69234923e-04  5.00403322e+03 
 1.69920000e-01  4.38032207e+00 -8.75343151e-04  5.00412052e+03 
 1.71920000e-01  4.41027257e+00 -8.81312835e-04  5.00420842e+03 
 1.73920000e-01  4.43952663e+00 -8.87143038e-04  5.00429692e+03 
 1.75920000e-01  4.46807965e+00 -8.92832843e-04  5.00438600e+03 
 1.77920000e-01  4.49592710e+00 -8.98381358e-04  5.00447564e+03 
 1.79920000e-01  4.52306459e+00 -9.03787713e-04  5.00456583e+03 
 1.81920000e-01  4.54948784e+00 -9.09051059e-04  5.00465655e+03 
 1.83920000e-01  4.57519267e+00 -9.14170572e-04  5.00474780e+03 
 1.85920000e-01  4.60017503e+00 -9.19145451e-04  5.00483955e+03 
 1.87920000e-01  4.62443096e+00 -9.23526281e-04  5.00737465e+03 
 1.89920000e-01  4.64795664e+00 -9.26870238e-04  5.01470541e+03 
 1.91920000e-01  4.67074836e+00 -9.29199300e-04  5.02666791e+03 
 1.93920000e-01  4.69280251e+00 -9.30540885e-04  5.04311500e+03 
 1.95920000e-01  4.71411562e+00 -9.30927719e-04  5.06389881e+03 
 1.97920000e-01  4.73468431e+00 -9.30397195e-04  5.08887080e+03 
 1.99920000e-01  4.75450534e+00 -9.28990683e-04  5.11788177e+03 
 2.01920000e-01  4.77357557e+00 -9.26752839e-04  5.15078186e+03 
 2.03920000e-01  4.79189201e+00 -9.23730914e-04  5.18742062e+03 
 2.05920000e-01  4.80945175e+00 -9.19974090e-04  5.22764699e+03 
 2.07920000e-01  4.82625202e+00 -9.15532844e-04  5.27130937e+03 
 2.09920000e-01  4.84229017e+00 -9.10458354e-04  5.31825559e+03 
 2.11920000e-01  4.85756366e+00 -9.04801956e-04  5.36833297e+03 
 2.13920000e-01  4.87207009e+00 -8.98614657e-04  5.42138835e+03 
 2.15920000e-01  4.88580717e+00 -8.91946699e-04  5.47726807e+03 
 2.17920000e-01  4.89877272e+00 -8.84847188e-04  5.53581806e+03 
 2.19920000e-01  4.91096469e+00 -8.77363776e-04  5.59688380e+03 
 2.21920000e-01  4.92238117e+00 -8.69542400e-04  5.66031039e+03 
 2.23920000e-01  4.93302035e+00 -8.61427075e-04  5.72594254e+03 
 2.25920000e-01  4.94288054e+00 -8.53059734e-04  5.79362463e+03 
 2.27920000e-01  4.95196020e+00 -8.44480116e-04  5.86320070e+03 
 2.29920000e-01  4.96025788e+00 -8.35725694e-04  5.93451451e+03 
 2.31920000e-01  4.96777229e+00 -8.26831632e-04  6.00740953e+03 
 2.33920000e-01  4.97450222e+00 -8.17830787e-04  6.08172898e+03 
 2.35920000e-01  4.98044662e+00 -8.08753723e-04  6.15731586e+03 
 2.37920000e-01  4.98560455e+00 -7.99628761e-04  6.23401298e+03 
 2.39920000e-01  4.98997520e+00 -7.90482033e-04  6.31166296e+03 
 2.41920000e-01  4.99355787e+00 -7.81337564e-04  6.39010827e+03 
 2.43920000e-01  4.99635201e+00 -7.72217361e-04  6.46919125e+03 
 2.45920000e-01  4.99835716e+00 -7.63141504e-04  6.54875417e+03 
 2.47920000e-01  4.99957301e+00 -7.54128254e-04  6.62863919e+03 
 2.49920000e-01  4.99999937e+00 -7.45194160e-04  6.70868842e+03 
 2.51920000e-01  4.99963617e+00 -7.36354161e-04  6.78874398e+03 
 2.53920000e-01  4.99848347e+00 -7.27621704e-04  6.86864794e+03 
 2.55920000e-01  4.99654146e+00 -7.19008846e-04  6.94824244e+03 
 2.57920000e-01  4.99381043e+00 -7.10526361e-04  7.02736962e+03 
 2.59920000e-01  4.99029082e+00 -7.02183848e-04  7.10587175e+03 
 2.61920000e-01  4.98598319e+00 -6.93989822e-04  7.18359115e+03 
 2.63920000e-01  4.98088821e+00 -6.85951820e-04  7.26037029e+03 
 2.65920000e-01  4.97500669e+00 -6.78076485e-04  7.33605178e+03 
 2.67920000e-01  4.96833956e+00 -6.70369661e-04  7.41047841e+03 
 2.69920000e-01  4.96088788e+00 -6.62836468e-04  7.48349315e+03 
 2.71920000e-01  4.95265281e+00 -6.55481388e-04  7.55493922e+03 
 2.73920000e-01  4.94363566e+00 -6.48308337e-04  7.62466007e+03 
 2.75920000e-01  4.93383785e+00 -6.41320732e-04  7.69249942e+03 
 2.77920000e-01  4.92326093e+00 -6.34521565e-04  7.75830129e+03 
 2.79920000e-01  4.91190657e+00 -6.27913457e-04  7.82191004e+03 
 2.81920000e-01  4.89977657e+00 -6.21498724e-04  7.88317036e+03 
 2.83920000e-01  4.88687283e+00 -6.15279429e-04  7.94192730e+03 
 2.85920000e-01  4.87319740e+00 -6.09257436e-04  7.99802632e+03 
 2.87920000e-01  4.85875244e+00 -6.03434463e-04  8.05131331e+03 
 2.89920000e-01  4.84354022e+00 -5.97812125e-04  8.10163457e+03 
 2.91920000e-01  4.82756315e+00 -5.92391987e-04  8.14883691e+03 
 2.93920000e-01  4.81082375e+00 -5.87175602e-04  8.19276760e+03 
 2.95920000e-01  4.79332467e+00 -5.82164560e-04  8.23327444e+03 
 2.97920000e-01  4.77506867e+00 -5.77360528e-04  8.27020578e+03 
 2.99920000e-01  4.75605863e+00 -5.72765295e-04  8.30341050e+03 
 3.01920000e-01  4.73629755e+00 -5.68380812e-04  8.33273812e+03 
 3.03920000e-01  4.71578855e+00 -5.64209237e-04  8.35803873e+03 
 3.05920000e-01  4.69453488e+00 -5.60252979e-04  8.37916307e+03 
 3.07920000e-01  4.67253988e+00 -5.56514744e-04  8.39596255e+03 
 3.09920000e-01  4.64980704e+00 -5.52997583e-04  8.40828924e+03 
 3.11920000e-01  4.62633994e+00 -5.49704942e-04  8.41599594e+03 
 3.13920000e-01  4.60214228e+00 -5.46640718e-04  8.41893616e+03 
 3.15920000e-01  4.57721790e+00 -5.43809315e-04  8.41696418e+03 
 3.17920000e-01  4.55157072e+00 -5.40902848e-04  8.41477749e+03 
 3.19920000e-01  4.52520479e+00 -5.37762970e-04  8.41486825e+03 
 3.21920000e-01  4.49812428e+00 -5.34539063e-04  8.41495849e+03 
 3.23920000e-01  4.47033347e+00 -5.31230852e-04  8.41504817e+03 
 3.25920000e-01  4.44183673e+00 -5.27838859e-04  8.41513729e+03 
 3.27920000e-01  4.41263858e+00 -5.24363623e-04  8.41522584e+03 
 3.29920000e-01  4.38274363e+00 -5.20805695e-04  8.41531379e+03 
 3.31920000e-01  4.35215658e+00 -5.17165638e-04  8.41540114e+03 
 3.33920000e-01  4.32088228e+00 -5.13444029e-04  8.41548787e+03 
 3.35920000e-01  4.28892567e+00 -5.09641456e-04  8.41557397e+03 
 3.37920000e-01  4.25629178e+00 -5.05758523e-04  8.41565942e+03 
 3.39920000e-01  4.22298577e+00 -5.01795844e-04  8.41574422e+03 
 3.41920000e-01  4.18901291e+00 -4.97754046e-04  8.41582834e+03 
 3.43920000e-01  4.15437855e+00 -4.93633769e-04  8.41591177e+03 
 3.45920000e-01  4.11908817e+00 -4.89435664e-04  8.41599450e+03 
 3.47920000e-01  4.08314734e+00 -4.85160396e-04  8.41607653e+03 
 3.49920000e-01  4.04656173e+00 -4.80808641e-04  8.41615782e+03 
 3.51920000e-01  4.00933712e+00 -4.76381088e-04  8.41623838e+03 
 3.53920000e-01  3.97147939e+00 -4.71878436e-04  8.41631819e+03 
 3.55920000e-01  3.93299451e+00 -4.67301397e-04  8.41639724e+03 
 3.57920000e-01  3.89388858e+00 -4.62650695e-04  8.41647550e+03 
 3.59920000e-01  3.85416775e+00 -4.57927066e-04  8.41655298e+03 
 3.61920000e-01  3.81383830e+00 -4.53131255e-04  8.41662966e+03 
 3.63920000e-01  3.77290661e+00 -4.48264022e-04  8.41670553e+03 
 3.65920000e-01  3.73137913e+00 -4.43326133e-04  8.41678058e+03 
 3.67920000e-01  3.68926242e+00 -4.38318371e-04  8.41685478e+03 
 3.69920000e-01  3.64656313e+00 -4.33241526e-04  8.41692814e+03 
 3.71920000e-01  3.60328801e+00 -4.28096399e-04  8.41700064e+03 
 3.73920000e-01  3.55944389e+00 -4.22883805e-04  8.41707227e+03 
 3.75920000e-01  3.51503769e+00 -4.17604565e-04  8.41714301e+03 
 3.77920000e-01  3.47007642e+00 -4.12259514e-04  8.41721286e+03 
 3.79920000e-01  3.42456720e+00 -4.06849495e-04  8.41728181e+03 
 3.81920000e-01  3.37851719e+00 -4.01375362e-04  8.41734984e+03 
 3.83920000e-01  3.33193367e+00 -3.95837981e-04  8.41741694e+03 
 3.85920000e-01  3.28482400e+00 -3.90238224e-04  8.41748311e+03 
 3.87920000e-01  3.23719563e+00 -3.84576976e-04  8.41754833e+03 
 3.89920000e-01  3.18905606e+00 -3.78855130e-04  8.41761259e+03 
 3.91920000e-01  3.14041290e+00 -3.73073590e-04  8.41767589e+03 
 3.93920000e-01  3.09127383e+00 -3.67233266e-04  8.41773821e+03 
 3.95920000e-01  3.04164662e+00 -3.61335082e-04  8.41779953e+03 
 3.97920000e-01  2.99153910e+00 -3.55379967e-04  8.41785987e+03 
 3.99920000e-01  2.94095917e+00 -3.49368861e-04  8.41791919e+03 
 4.01920000e-01  2.88991484e+00 -3.43302712e-04  8.41797750e+03 
 4.03920000e-01  2.83841415e+00 -3.37182477e-04  8.41803478e+03 
 4.05920000e-01  2.78646525e+00 -3.31009122e-04  8.41809103e+03 
 4.07920000e-01  2.73407633e+00 -3.24783620e-04  8.41814624e+03 
 4.09920000e-01  2.68125566e+00 -3.18506952e-04  8.41820039e+03 
 4.11920000e-01  2.62801160e+00 -3.12180109e-04  8.41825348e+03 
 4.13920000e-01  2.57435254e+00 -3.05804087e-04  8.41830551e+03 
 4.15920000e-01  2.52028697e+00 -2.99379894e-04  8.41835645e+03 
 4.17920000e-01  2.46582341e+00 -2.92908540e-04  8.41840631e+03 
 4.19920000e-01  2.41097047e+00 -2.86391047e-04  8.41845508e+03 
 4.21920000e-01  2.35573680e+00 -2.79828442e-04  8.41850275e+03 
 4.23920000e-01  2.30013114e+00 -2.73221760e-04  8.41854931e+03 
 4.25920000e-01  2.24416227e+00 -2.66572041e-04  8.41859475e+03 
 4.27920000e-01  2.18783901e+00 -2.59880334e-04  8.41863907e+03 
 4.29920000e-01  2.13117027e+00 -2.53147693e-04  8.41868226e+03 
 4.31920000e-01  2.07416499e+00 -2.46375180e-04  8.41872431e+03 
 4.33920000e-01  2.01683218e+00 -2.39563862e-04  8.41876522e+03 
 4.35920000e-01  1.95918088e+00 -2.32714813e-04  8.41880498e+03 
 4.37920000e-01  1.90122021e+00 -2.25829111e-04  8.41884359e+03 
 4.39920000e-01  1.84295931e+00 -2.18907841e-04  8.41888103e+03 
 4.41920000e-01  1.78440739e+00 -2.11952094e-04  8.41891730e+03 
 4.43920000e-01  1.72557369e+00 -2.04962967e-04  8.41895240e+03 
 4.45920000e-01  1.66646751e+00 -1.97941559e-04  8.41898632e+03 
 4.47920000e-01  1.60709816e+00 -1.90888978e-04  8.41901906e+03 
 4.49920000e-01  1.54747504e+00 -1.83806335e-04  8.41905061e+03 
 4.51920000e-01  1.48760756e+00 -1.76694744e-04  8.41908096e+03 
 4.53920000e-01  1.42750516e+00 -1.69555327e-04  8.41911011e+03 
 4.55920000e-01  1.36717734e+00 -1.62389207e-04  8.41913805e+03 
 4.57920000e-01  1.30663364e+00 -1.55197515e-04  8.41916479e+03 
 4.59920000e-01  1.24588359e+00 -1.47981382e-04  8.41919032e+03 
 4.61920000e-01  1.18493681e+00 -1.40741946e-04  8.41921463e+03 
 4.63920000e-01  1.12380292e+00 -1.33480345e-04  8.41923771e+03 
 4.65920000e-01  1.06249156e+00 -1.26197725e-04  8.41925958e+03 
 4.67920000e-01  1.00101242e+00 -1.18895233e-04  8.41928021e+03 
 4.69920000e-01  9.39375212e-01 -1.11574017e-04  8.41929962e+03 
 4.71920000e-01  8.77589664e-01 -1.04235231e-04  8.41931779e+03 
 4.73920000e-01  8.15665535e-01 -9.68800321e-05  8.41933472e+03 
 4.75920000e-01  7.53612603e-01 -8.95095770e-05  8.41935041e+03 
 4.77920000e-01  6.91440667e-01 -8.21250270e-05  8.41936486e+03 
 4.79920000e-01  6.29159545e-01 -7.47275449e-05  8.41937807e+03 
 4.81920000e-01  5.66779071e-01 -6.73182956e-05  8.41939003e+03 
 4.83920000e-01  5.04309095e-01 -5.98984460e-05  8.41940074e+03 
 4.85920000e-01  4.41759484e-01 -5.24691644e-05  8.41941020e+03 
 4.87920000e-01  3.79140114e-01 -4.50316206e-05  8.41941841e+03 
 4.89920000e-01  3.16460873e-01 -3.75869860e-05  8.41942536e+03 
 4.91920000e-01  2.53731659e-01 -3.01364328e-05  8.41943106e+03 
 4.93920000e-01  1.90962378e-01 -2.26811341e-05  8.41943551e+03 
 4.95920000e-01  1.28162942e-01 -1.52222640e-05  8.41943870e+03 
 4.97920000e-01  6.53432671e-02 -7.76099696e-06  8.41944064e+03 
 4.99920000e-01  2.51327402e-03 -2.98507808e-07  8.41944132e+03 
 5.01920000e-01 -6.03171159e-02  7.16402834e-06  8.41944074e+03 
 5.03920000e-01 -1.23137981e-01  1.46254364e-05  8.41943890e+03 
 5.05920000e-01 -1.85939401e-01  2.20845415e-05  8.41943581e+03 
 5.07920000e-01 -2.48711460e-01  2.95401691e-05  8.41943147e+03 
 5.09920000e-01 -3.11444243e-01  3.69911451e-05  8.41942587e+03 
 5.11920000e-01 -3.74127847e-01  4.44362964e-05  8.41941901e+03 
 5.13920000e-01 -4.36752371e-01  5.18744505e-05  8.41941090e+03 
 5.15920000e-01 -4.99307926e-01  5.93044361e-05  8.41940154e+03 
 5.17920000e-01 -5.61784636e-01  6.67250834e-05  8.41939093e+03 
 5.19920000e-01 -6.24172633e-01  7.41352236e-05  8.41937907e+03 
 5.21920000e-01 -6.86462065e-01  8.15336900e-05  8.41936596e+03 
 5.23920000e-01 -7.48643098e-01  8.89193174e-05  8.41935161e+03 
 5.25920000e-01 -8.10705911e-01  9.62909428e-05  8.41933602e+03 
 5.27920000e-01 -8.72640704e-01  1.03647405e-04  8.41931919e+03 
 5.29920000e-01 -9.34437698e-01  1.10987546e-04  8.41930111e+03 
 5.31920000e-01 -9.96087132e-01  1.18310210e-04  8.41928181e+03 
 5.33920000e-01 -1.05757927e+00  1.25614243e-04  8.41926127e+03 
 5.35920000e-01 -1.11890441e+00  1.32898495e-04  8.41923951e+03 
 5.37920000e-01 -1.18005286e+00  1.40161819e-04  8.41921652e+03 
 5.39920000e-01 -1.24101496e+00  1.47403071e-04  8.41919231e+03 
 5.41920000e-01 -1.30178110e+00  1.54621110e-04  8.41916688e+03 
 5.43920000e-01 -1.36234167e+00  1.61814799e-04  8.41914024e+03 
 5.45920000e-01 -1.42268710e+00  1.68983006e-04  8.41911239e+03 
 5.47920000e-01 -1.48280788e+00  1.76124601e-04  8.41908333e+03 
 5.49920000e-01 -1.54269451e+00  1.83238459e-04  8.41905308e+03 
 5.51920000e-01 -1.60233753e+00  1.90323459e-04  8.41902163e+03 
 5.53920000e-01 -1.66172752e+00  1.97378486e-04  8.41898899e+03 
 5.55920000e-01 -1.72085510e+00  2.04402428e-04  8.41895516e+03 
 5.57920000e-01 -1.77971094e+00  2.11394179e-04  8.41892016e+03 
 5.59920000e-01 -1.83828575e+00  2.18352636e-04  8.41888398e+03 
 5.61920000e-01 -1.89657027e+00  2.25276704e-04  8.41884663e+03 
 5.63920000e-01 -1.95455529e+00  2.32165292e-04  8.41880812e+03 
 5.65920000e-01 -2.01223167e+00  2.39017313e-04  8.41876845e+03 
 5.67920000e-01 -2.06959030e+00  2.45831690e-04  8.41872763e+03 
 5.69920000e-01 -2.12662211e+00  2.52607346e-04  8.41868567e+03 
 5.71920000e-01 -2.18331811e+00  2.59343215e-04  8.41864257e+03 
 5.73920000e-01 -2.23966933e+00  2.66038236e-04  8.41859834e+03 
 5.75920000e-01 -2.29566688e+00  2.72691353e-04  8.41855298e+03 
 5.77920000e-01 -2.35130192e+00  2.79301517e-04  8.41850652e+03 
 5.79920000e-01 -2.40656567e+00  2.85867686e-04  8.41845894e+03 
 5.81920000e-01 -2.46144939e+00  2.92388826e-04  8.41841026e+03 
 5.83920000e-01 -2.51594441e+00  2.98863908e-04  8.41836048e+03 
