 time            vin             i(v1)           l0             
 2.00000000e-05  6.28318529e-04 -1.25663706e-07  5.00000000e+03 
 4.00000000e-05  1.25663705e-03 -2.51327411e-07  5.00000000e+03 
 8.00000000e-05  2.51327402e-03 -5.02654806e-07  5.00000000e+03 
 1.60000000e-04  5.02654740e-03 -1.00530948e-06  5.00000000e+03 
 3.20000000e-04  1.00530897e-02 -2.01061795e-06  5.00000000e+03 
 6.40000000e-04  2.01061388e-02 -4.02122778e-06  5.00000000e+03 
 1.28000000e-03  4.02119525e-02 -8.04239053e-06  5.00000000e+03 
 2.00000000e-03  6.28301994e-02 -1.25660399e-05  5.00000000e+03 
 2.12800000e-03  6.68510998e-02 -1.33702200e-05  5.00000000e+03 
 2.38400000e-03  7.48927681e-02 -1.49785537e-05  5.00000000e+03 
 2.89600000e-03  9.09755027e-02 -1.81951006e-05  5.00000000e+03 
 3.92000000e-03  1.23137981e-01 -2.46275963e-05  5.00000000e+03 
 5.92000000e-03  1.85939401e-01 -3.71878804e-05  5.00000000e+03 
 7.92000000e-03  2.48711460e-01 -4.97422922e-05  5.00000000e+03 
 9.92000000e-03  3.11444243e-01 -6.22888490e-05  5.00000000e+03 
 1.19200000e-02  3.74127847e-01 -7.48255697e-05  5.00000000e+03 
 1.39200000e-02  4.36752371e-01 -8.73504746e-05  5.00000000e+03 
 1.59200000e-02  4.99307926e-01 -9.98615858e-05  5.00000000e+03 
 1.79200000e-02  5.61784636e-01 -1.12356928e-04  5.00000000e+03 
 1.99200000e-02  6.24172633e-01 -1.24834527e-04  5.00000000e+03 
 2.19200000e-02  6.86462065e-01 -1.37292414e-04  5.00000001e+03 
 2.39200000e-02  7.48643098e-01 -1.49728620e-04  5.00000001e+03 
 2.59200000e-02  8.10705911e-01 -1.62141183e-04  5.00000001e+03 
 2.79200000e-02  8.72640704e-01 -1.74528142e-04  5.00000001e+03 
 2.99200000e-02  9.34437698e-01 -1.86887540e-04  5.00000001e+03 
 3.19200000e-02  9.96087132e-01 -1.99217427e-04  5.00000001e+03 
 3.39200000e-02  1.05757927e+00 -2.11515855e-04  5.00000001e+03 
 3.59200000e-02  1.11890441e+00 -2.23780883e-04  5.00000001e+03 
 3.79200000e-02  1.18005286e+00 -2.36010573e-04  5.00000001e+03 
 3.99200000e-02  1.24101496e+00 -2.48202994e-04  5.00000001e+03 
 4.19200000e-02  1.30178110e+00 -2.60356221e-04  5.00000001e+03 
 4.39200000e-02  1.36234167e+00 -2.72468334e-04  5.00000001e+03 
 4.59200000e-02  1.42268710e+00 -2.84537422e-04  5.00000001e+03 
 4.79200000e-02  1.48280788e+00 -2.96561578e-04  5.00000001e+03 
 4.99200000e-02  1.54269451e+00 -3.08538903e-04  5.00000001e+03 
 5.19200000e-02  1.60233753e+00 -3.20467507e-04  5.00000001e+03 
 5.39200000e-02  1.66172752e+00 -3.32345505e-04  5.00000001e+03 
 5.59200000e-02  1.72085510e+00 -3.44171022e-04  5.00000001e+03 
 5.79200000e-02  1.77971094e+00 -3.55942190e-04  5.00000001e+03 
 5.99200000e-02  1.83828575e+00 -3.67657151e-04  5.00000001e+03 
 6.19200000e-02  1.89657027e+00 -3.79314055e-04  5.00000001e+03 
 6.39200000e-02  1.95455529e+00 -3.90911060e-04  5.00000001e+03 
 6.59200000e-02  2.01223167e+00 -4.02446336e-04  5.00000001e+03 
 6.79200000e-02  2.06959030e+00 -4.13918061e-04  5.00000001e+03 
 6.99200000e-02  2.12662211e+00 -4.25324424e-04  5.00000001e+03 
 7.19200000e-02  2.18331811e+00 -4.36663623e-04  5.00000001e+03 
 7.39200000e-02  2.23966933e+00 -4.47933867e-04  5.00000001e+03 
 7.59200000e-02  2.29566688e+00 -4.59133378e-04  5.00000001e+03 
 7.79200000e-02  2.35130192e+00 -4.70260387e-04  5.00000001e+03 
 7.99200000e-02  2.40656567e+00 -4.81313135e-04  5.00000001e+03 
 8.19200000e-02  2.46144939e+00 -4.92289879e-04  5.00000001e+03 
 8.39200000e-02  2.51594441e+00 -5.03188885e-04  5.00000001e+03 
 8.59200000e-02  2.57004214e+00 -5.14008431e-04  5.00000001e+03 
 8.79200000e-02  2.62373404e+00 -5.24746809e-04  5.00000001e+03 
 8.99200000e-02  2.67701161e+00 -5.35402324e-04  5.00000001e+03 
 9.19200000e-02  2.72986645e+00 -5.45973292e-04  5.00000001e+03 
 9.39200000e-02  2.78229022e+00 -5.56458045e-04  5.00000001e+03 
 9.59200000e-02  2.83427462e+00 -5.66854927e-04  5.00000001e+03 
 9.79200000e-02  2.88581147e+00 -5.77162296e-04  5.00000001e+03 
 9.99200000e-02  2.93689261e+00 -5.87378524e-04  5.00000001e+03 
 1.01920000e-01  2.98750998e+00 -5.97501998e-04  5.00000001e+03 
 1.03920000e-01  3.03765559e+00 -6.07531120e-04  5.00000001e+03 
 1.05920000e-01  3.08732152e+00 -6.17464306e-04  5.00000001e+03 
 1.07920000e-01  3.13649992e+00 -6.27299987e-04  5.00000001e+03 
 1.09920000e-01  3.18518304e+00 -6.37036609e-04  5.00000001e+03 
 1.11920000e-01  3.23336317e+00 -6.46672637e-04  5.00000001e+03 
 1.13920000e-01  3.28103272e+00 -6.56206547e-04  5.00000001e+03 
 1.15920000e-01  3.32818416e+00 -6.65636835e-04  5.00000001e+03 
 1.17920000e-01  3.37481004e+00 -6.74962011e-04  5.00000001e+03 
 1.19920000e-01  3.42090300e+00 -6.84180602e-04  5.00000001e+03 
 1.21920000e-01  3.46645576e+00 -6.93291154e-04  5.00000001e+03 
 1.23920000e-01  3.51146112e+00 -7.02292227e-04  5.00000001e+03 
 1.25920000e-01  3.55591198e+00 -7.11182400e-04  5.00000001e+03 
 1.27920000e-01  3.59980133e+00 -7.19960268e-04  5.00000001e+03 
 1.29920000e-01  3.64312222e+00 -7.28624447e-04  5.00000001e+03 
 1.31920000e-01  3.68586782e+00 -7.37173568e-04  5.00000001e+03 
 1.33920000e-01  3.72803139e+00 -7.45606280e-04  5.00000001e+03 
 1.35920000e-01  3.76960625e+00 -7.53921252e-04  5.00000001e+03 
 1.37920000e-01  3.81058584e+00 -7.62117172e-04  5.00000001e+03 
 1.39920000e-01  3.85096371e+00 -7.70192744e-04  5.00000001e+03 
 1.41920000e-01  3.89073346e+00 -7.78146694e-04  5.00000001e+03 
 1.43920000e-01  3.92988881e+00 -7.85977766e-04  5.00000001e+03 
 1.45920000e-01  3.96842360e+00 -7.93684722e-04  5.00000001e+03 
 1.47920000e-01  4.00633172e+00 -8.01266347e-04  5.00000001e+03 
 1.49920000e-01  4.04360720e+00 -8.08721442e-04  5.00000001e+03 
 1.51920000e-01  4.08024414e+00 -8.16048831e-04  5.00000001e+03 
 1.53920000e-01  4.11623677e+00 -8.23247356e-04  5.00000001e+03 
 1.55920000e-01  4.15157939e+00 -8.30315881e-04  5.00000001e+03 
 1.57920000e-01  4.18626643e+00 -8.37253290e-04  5.00000001e+03 
 1.59920000e-01  4.22029241e+00 -8.44058486e-04  5.00000001e+03 
 1.61920000e-01  4.25365196e+00 -8.50730396e-04  5.00000001e+03 
 1.63920000e-01  4.28633981e+00 -8.57267966e-04  5.00000001e+03 
 1.65920000e-01  4.31835080e+00 -8.63670163e-04  5.00000001e+03 
 1.67920000e-01  4.34967986e+00 -8.69935976e-04  5.00000001e+03 
 1.69920000e-01  4.38032207e+00 -8.76064417e-04  5.00000001e+03 
 1.71920000e-01  4.41027257e+00 -8.82054517e-04  5.00000001e+03 
 1.73920000e-01  4.43952663e+00 -8.87905330e-04  5.00000001e+03 
 1.75920000e-01  4.46807965e+00 -8.93615933e-04  5.00000001e+03 
 1.77920000e-01  4.49592710e+00 -8.99185423e-04  5.00000001e+03 
 1.79920000e-01  4.52306459e+00 -9.04612922e-04  5.00000001e+03 
 1.81920000e-01  4.54948784e+00 -9.09897571e-04  5.00000001e+03 
 1.83920000e-01  4.57519267e+00 -9.15038538e-04  5.00000001e+03 
 1.85920000e-01  4.60017503e+00 -9.20035009e-04  5.00000001e+03 
 1.87920000e-01  4.62443096e+00 -9.24886196e-04  5.00000001e+03 
 1.89920000e-01  4.64795664e+00 -9.29591332e-04  5.00000001e+03 
 1.91920000e-01  4.67074836e+00 -9.34149676e-04  5.00000001e+03 
 1.93920000e-01  4.69280251e+00 -9.38560506e-04  5.00000001e+03 
 1.95920000e-01  4.71411562e+00 -9.42823127e-04  5.00000001e+03 
 1.97920000e-01  4.73468431e+00 -9.46936865e-04  5.00000001e+03 
 1.99920000e-01  4.75450534e+00 -9.50901071e-04  5.00000001e+03 
 2.01920000e-01  4.77357557e+00 -9.54715118e-04  5.00000001e+03 
 2.03920000e-01  4.79189201e+00 -9.58378405e-04  5.00000001e+03 
 2.05920000e-01  4.80945175e+00 -9.61890353e-04  5.00000001e+03 
 2.07920000e-01  4.82625202e+00 -9.65250407e-04  5.00000001e+03 
 2.09920000e-01  4.84229017e+00 -9.68458037e-04  5.00000001e+03 
 2.11920000e-01  4.85756366e+00 -9.71512737e-04  5.00000001e+03 
 2.13920000e-01  4.87207009e+00 -9.74414023e-04  5.00000001e+03 
 2.15920000e-01  4.88580717e+00 -9.77161437e-04  5.00000001e+03 
 2.17920000e-01  4.89877272e+00 -9.79754547e-04  5.00000001e+03 
 2.19920000e-01  4.91096469e+00 -9.82192942e-04  5.00000001e+03 
 2.21920000e-01  4.92238117e+00 -9.84476238e-04  5.00000001e+03 
 2.23920000e-01  4.93302035e+00 -9.86604073e-04  5.00000001e+03 
 2.25920000e-01  4.94288054e+00 -9.88576112e-04  5.00000001e+03 
 2.27920000e-01  4.95196020e+00 -9.90392043e-04  5.00000001e+03 
 2.29920000e-01  4.96025788e+00 -9.92051580e-04  5.00000001e+03 
 2.31920000e-01  4.96777229e+00 -9.93554461e-04  5.00000001e+03 
 2.33920000e-01  4.97450222e+00 -9.94900448e-04  5.00000001e+03 
 2.35920000e-01  4.98044662e+00 -9.96089328e-04  5.00000001e+03 
 2.37920000e-01  4.98560455e+00 -9.97120915e-04  5.00000001e+03 
 2.39920000e-01  4.98997520e+00 -9.97995044e-04  5.00000001e+03 
 2.41920000e-01  4.99355787e+00 -9.98711579e-04  5.00000001e+03 
 2.43920000e-01  4.99635201e+00 -9.99270405e-04  5.00000001e+03 
 2.45920000e-01  4.99835716e+00 -9.99671435e-04  5.00000001e+03 
 2.47920000e-01  4.99957301e+00 -9.99914605e-04  5.00000001e+03 
 2.49920000e-01  4.99999937e+00 -9.99999878e-04  5.00000001e+03 
 2.51920000e-01  4.99963617e+00 -9.99927238e-04  5.00000001e+03 
 2.53920000e-01  4.99848347e+00 -9.99696699e-04  5.00000001e+03 
 2.55920000e-01  4.99654146e+00 -9.99308295e-04  5.00000001e+03 
 2.57920000e-01  4.99381043e+00 -9.98762090e-04  5.00000001e+03 
 2.59920000e-01  4.99029082e+00 -9.98058168e-04  5.00000001e+03 
 2.61920000e-01  4.98598319e+00 -9.97196642e-04  5.00000001e+03 
 2.63920000e-01  4.98088821e+00 -9.96177646e-04  5.00000001e+03 
 2.65920000e-01  4.97500669e+00 -9.95001342e-04  5.00000001e+03 
 2.67920000e-01  4.96833956e+00 -9.93667917e-04  5.00000001e+03 
 2.69920000e-01  4.96088788e+00 -9.92177579e-04  5.00000001e+03 
 2.71920000e-01  4.95265281e+00 -9.90530565e-04  5.00000001e+03 
 2.73920000e-01  4.94363566e+00 -9.88727135e-04  5.00000001e+03 
 2.75920000e-01  4.93383785e+00 -9.86767574e-04  5.00000001e+03 
 2.77920000e-01  4.92326093e+00 -9.84652190e-04  5.00000001e+03 
 2.79920000e-01  4.91190657e+00 -9.82381319e-04  5.00000001e+03 
 2.81920000e-01  4.89977657e+00 -9.79955318e-04  5.00000001e+03 
 2.83920000e-01  4.88687283e+00 -9.77374570e-04  5.00000001e+03 
 2.85920000e-01  4.87319740e+00 -9.74639484e-04  5.00000001e+03 
 2.87920000e-01  4.85875244e+00 -9.71750491e-04  5.00000001e+03 
 2.89920000e-01  4.84354022e+00 -9.68708048e-04  5.00000001e+03 
 2.91920000e-01  4.82756315e+00 -9.65512634e-04  5.00000001e+03 
 2.93920000e-01  4.81082375e+00 -9.62164754e-04  5.00000001e+03 
 2.95920000e-01  4.79332467e+00 -9.58664938e-04  5.00000001e+03 
 2.97920000e-01  4.77506867e+00 -9.55013737e-04  5.00000001e+03 
 2.99920000e-01  4.75605863e+00 -9.51211729e-04  5.00000001e+03 
 3.01920000e-01  4.73629755e+00 -9.47259513e-04  5.00000001e+03 
 3.03920000e-01  4.71578855e+00 -9.43157714e-04  5.00000001e+03 
 3.05920000e-01  4.69453488e+00 -9.38906979e-04  5.00000001e+03 
 3.07920000e-01  4.67253988e+00 -9.34507980e-04  5.00000001e+03 
 3.09920000e-01  4.64980704e+00 -9.29961412e-04  5.00000001e+03 
 3.11920000e-01  4.62633994e+00 -9.25267991e-04  5.00000001e+03 
 3.13920000e-01  4.60214228e+00 -9.20428461e-04  5.00000001e+03 
 3.15920000e-01  4.57721790e+00 -9.15443583e-04  5.00000001e+03 
 3.17920000e-01  4.55157072e+00 -9.10314147e-04  5.00000001e+03 
 3.19920000e-01  4.52520479e+00 -9.05040962e-04  5.00000001e+03 
 3.21920000e-01  4.49812428e+00 -8.99624860e-04  5.00000001e+03 
 3.23920000e-01  4.47033347e+00 -8.94066697e-04  5.00000001e+03 
 3.25920000e-01  4.44183673e+00 -8.88367350e-04  5.00000001e+03 
 3.27920000e-01  4.41263858e+00 -8.82527720e-04  5.00000001e+03 
 3.29920000e-01  4.38274363e+00 -8.76548729e-04  5.00000001e+03 
 3.31920000e-01  4.35215658e+00 -8.70431320e-04  5.00000001e+03 
 3.33920000e-01  4.32088228e+00 -8.64176460e-04  5.00000001e+03 
 3.35920000e-01  4.28892567e+00 -8.57785137e-04  5.00000001e+03 
 3.37920000e-01  4.25629178e+00 -8.51258359e-04  5.00000001e+03 
 3.39920000e-01  4.22298577e+00 -8.44597158e-04  5.00000001e+03 
 3.41920000e-01  4.18901291e+00 -8.37802585e-04  5.00000001e+03 
 3.43920000e-01  4.15437855e+00 -8.30875714e-04  5.00000001e+03 
 3.45920000e-01  4.11908817e+00 -8.23817637e-04  5.00000001e+03 
 3.47920000e-01  4.08314734e+00 -8.16629470e-04  5.00000001e+03 
 3.49920000e-01  4.04656173e+00 -8.09312348e-04  5.00000001e+03 
 3.51920000e-01  4.00933712e+00 -8.01867427e-04  5.00000001e+03 
 3.53920000e-01  3.97147939e+00 -7.94295880e-04  5.00000001e+03 
 3.55920000e-01  3.93299451e+00 -7.86598906e-04  5.00000001e+03 
 3.57920000e-01  3.89388858e+00 -7.78777718e-04  5.00000001e+03 
 3.59920000e-01  3.85416775e+00 -7.70833553e-04  5.00000001e+03 
 3.61920000e-01  3.81383830e+00 -7.62767663e-04  5.00000001e+03 
 3.63920000e-01  3.77290661e+00 -7.54581324e-04  5.00000001e+03 
 3.65920000e-01  3.73137913e+00 -7.46275828e-04  5.00000001e+03 
 3.67920000e-01  3.68926242e+00 -7.37852486e-04  5.00000001e+03 
 3.69920000e-01  3.64656313e+00 -7.29312629e-04  5.00000001e+03 
 3.71920000e-01  3.60328801e+00 -7.20657605e-04  5.00000001e+03 
 3.73920000e-01  3.55944389e+00 -7.11888780e-04  5.00000001e+03 
 3.75920000e-01  3.51503769e+00 -7.03007541e-04  5.00000001e+03 
 3.77920000e-01  3.47007642e+00 -6.94015288e-04  5.00000001e+03 
 3.79920000e-01  3.42456720e+00 -6.84913442e-04  5.00000001e+03 
 3.81920000e-01  3.37851719e+00 -6.75703440e-04  5.00000001e+03 
 3.83920000e-01  3.33193367e+00 -6.66386737e-04  5.00000001e+03 
 3.85920000e-01  3.28482400e+00 -6.56964803e-04  5.00000001e+03 
 3.87920000e-01  3.23719563e+00 -6.47439128e-04  5.00000001e+03 
 3.89920000e-01  3.18905606e+00 -6.37811214e-04  5.00000001e+03 
 3.91920000e-01  3.14041290e+00 -6.28082582e-04  5.00000001e+03 
 3.93920000e-01  3.09127383e+00 -6.18254769e-04  5.00000001e+03 
 3.95920000e-01  3.04164662e+00 -6.08329326e-04  5.00000001e+03 
 3.97920000e-01  2.99153910e+00 -5.98307821e-04  5.00000001e+03 
 3.99920000e-01  2.94095917e+00 -5.88191837e-04  5.00000001e+03 
 4.01920000e-01  2.88991484e+00 -5.77982970e-04  5.00000001e+03 
 4.03920000e-01  2.83841415e+00 -5.67682832e-04  5.00000001e+03 
 4.05920000e-01  2.78646525e+00 -5.57293051e-04  5.00000001e+03 
 4.07920000e-01  2.73407633e+00 -5.46815267e-04  5.00000001e+03 
 4.09920000e-01  2.68125566e+00 -5.36251135e-04  5.00000001e+03 
 4.11920000e-01  2.62801160e+00 -5.25602322e-04  5.00000001e+03 
 4.13920000e-01  2.57435254e+00 -5.14870511e-04  5.00000001e+03 
 4.15920000e-01  2.52028697e+00 -5.04057395e-04  5.00000001e+03 
 4.17920000e-01  2.46582341e+00 -4.93164683e-04  5.00000001e+03 
 4.19920000e-01  2.41097047e+00 -4.82194095e-04  5.00000001e+03 
 4.21920000e-01  2.35573680e+00 -4.71147362e-04  5.00000001e+03 
 4.23920000e-01  2.30013114e+00 -4.60026230e-04  5.00000001e+03 
 4.25920000e-01  2.24416227e+00 -4.48832455e-04  5.00000001e+03 
 4.27920000e-01  2.18783901e+00 -4.37567803e-04  5.00000001e+03 
 4.29920000e-01  2.13117027e+00 -4.26234055e-04  5.00000001e+03 
 4.31920000e-01  2.07416499e+00 -4.14832999e-04  5.00000001e+03 
 4.33920000e-01  2.01683218e+00 -4.03366437e-04  5.00000001e+03 
 4.35920000e-01  1.95918088e+00 -3.91836178e-04  5.00000001e+03 
 4.37920000e-01  1.90122021e+00 -3.80244044e-04  5.00000001e+03 
 4.39920000e-01  1.84295931e+00 -3.68591864e-04  5.00000001e+03 
 4.41920000e-01  1.78440739e+00 -3.56881480e-04  5.00000001e+03 
 4.43920000e-01  1.72557369e+00 -3.45114740e-04  5.00000001e+03 
 4.45920000e-01  1.66646751e+00 -3.33293502e-04  5.00000001e+03 
 4.47920000e-01  1.60709816e+00 -3.21419634e-04  5.00000001e+03 
 4.49920000e-01  1.54747504e+00 -3.09495010e-04  5.00000001e+03 
 4.51920000e-01  1.48760756e+00 -2.97521512e-04  5.00000001e+03 
 4.53920000e-01  1.42750516e+00 -2.85501033e-04  5.00000001e+03 
 4.55920000e-01  1.36717734e+00 -2.73435470e-04  5.00000001e+03 
 4.57920000e-01  1.30663364e+00 -2.61326728e-04  5.00000001e+03 
 4.59920000e-01  1.24588359e+00 -2.49176720e-04  5.00000001e+03 
 4.61920000e-01  1.18493681e+00 -2.36987363e-04  5.00000001e+03 
 4.63920000e-01  1.12380292e+00 -2.24760584e-04  5.00000001e+03 
 4.65920000e-01  1.06249156e+00 -2.12498312e-04  5.00000001e+03 
 4.67920000e-01  1.00101242e+00 -2.00202485e-04  5.00000001e+03 
 4.69920000e-01  9.39375212e-01 -1.87875043e-04  5.00000001e+03 
 4.71920000e-01  8.77589664e-01 -1.75517934e-04  5.00000001e+03 
 4.73920000e-01  8.15665535e-01 -1.63133108e-04  5.00000001e+03 
 4.75920000e-01  7.53612603e-01 -1.50722521e-04  5.00000001e+03 
 4.77920000e-01  6.91440667e-01 -1.38288134e-04  5.00000001e+03 
 4.79920000e-01  6.29159545e-01 -1.25831909e-04  5.00000000e+03 
 4.81920000e-01  5.66779071e-01 -1.13355815e-04  5.00000000e+03 
 4.83920000e-01  5.04309095e-01 -1.00861820e-04  5.00000000e+03 
 4.85920000e-01  4.41759484e-01 -8.83518972e-05  5.00000000e+03 
 4.87920000e-01  3.79140114e-01 -7.58280231e-05  5.00000000e+03 
 4.89920000e-01  3.16460873e-01 -6.32921749e-05  5.00000000e+03 
 4.91920000e-01  2.53731659e-01 -5.07463320e-05  5.00000000e+03 
 4.93920000e-01  1.90962378e-01 -3.81924757e-05  5.00000001e+03 
 4.95920000e-01  1.28162942e-01 -2.56325884e-05  5.00000001e+03 
 4.97920000e-01  6.53432671e-02 -1.30686535e-05  5.00000001e+03 
 4.99920000e-01  2.51327402e-03 -5.02654805e-07  5.00000001e+03 
 5.01920000e-01 -6.03171159e-02  1.20634232e-05  5.00000000e+03 
 5.03920000e-01 -1.23137981e-01  2.46275963e-05  5.00000000e+03 
 5.05920000e-01 -1.85939401e-01  3.71878804e-05  5.00000000e+03 
 5.07920000e-01 -2.48711460e-01  4.97422922e-05  5.00000000e+03 
 5.09920000e-01 -3.11444243e-01  6.22888490e-05  5.00000000e+03 
 5.11920000e-01 -3.74127847e-01  7.48255697e-05  5.00000000e+03 
 5.13920000e-01 -4.36752371e-01  8.73504746e-05  5.00000000e+03 
 5.15920000e-01 -4.99307926e-01  9.98615857e-05  5.00000000e+03 
 5.17920000e-01 -5.61784636e-01  1.12356928e-04  5.00000000e+03 
 5.19920000e-01 -6.24172633e-01  1.24834527e-04  5.00000000e+03 
 5.21920000e-01 -6.86462065e-01  1.37292414e-04  5.00000000e+03 
 5.23920000e-01 -7.48643098e-01  1.49728621e-04  4.99999999e+03 
 5.25920000e-01 -8.10705911e-01  1.62141183e-04  4.99999999e+03 
 5.27920000e-01 -8.72640704e-01  1.74528142e-04  4.99999998e+03 
 5.29920000e-01 -9.34437698e-01  1.86887541e-04  4.99999998e+03 
 5.31920000e-01 -9.96087132e-01  1.99217428e-04  4.99999998e+03 
 5.33920000e-01 -1.05757927e+00  2.11515857e-04  4.99999997e+03 
 5.35920000e-01 -1.11890441e+00  2.23780884e-04  4.99999997e+03 
 5.37920000e-01 -1.18005286e+00  2.36010574e-04  4.99999997e+03 
 5.39920000e-01 -1.24101496e+00  2.48202996e-04  4.99999996e+03 
 5.41920000e-01 -1.30178110e+00  2.60356223e-04  4.99999996e+03 
 5.43920000e-01 -1.36234167e+00  2.72468337e-04  4.99999995e+03 
 5.45920000e-01 -1.42268710e+00  2.84537426e-04  4.99999994e+03 
 5.47920000e-01 -1.48280788e+00  2.96561582e-04  4.99999994e+03 
 5.49920000e-01 -1.54269451e+00  3.08538908e-04  4.99999993e+03 
 5.51920000e-01 -1.60233753e+00  3.20467512e-04  4.99999993e+03 
 5.53920000e-01 -1.66172752e+00  3.32345510e-04  4.99999993e+03 
 5.55920000e-01 -1.72085510e+00  3.44171027e-04  4.99999993e+03 
 5.57920000e-01 -1.77971094e+00  3.55942196e-04  4.99999992e+03 
 5.59920000e-01 -1.83828575e+00  3.67657157e-04  4.99999992e+03 
 5.61920000e-01 -1.89657027e+00  3.79314061e-04  4.99999991e+03 
 5.63920000e-01 -1.95455529e+00  3.90911068e-04  4.99999991e+03 
 5.65920000e-01 -2.01223167e+00  4.02446345e-04  4.99999990e+03 
 5.67920000e-01 -2.06959030e+00  4.13918071e-04  4.99999989e+03 
 5.69920000e-01 -2.12662211e+00  4.25324435e-04  4.99999988e+03 
 5.71920000e-01 -2.18331811e+00  4.36663635e-04  4.99999986e+03 
 5.73920000e-01 -2.23966933e+00  4.47933881e-04  4.99999985e+03 
 5.75920000e-01 -2.29566688e+00  4.59133393e-04  4.99999985e+03 
 5.77920000e-01 -2.35130192e+00  4.70260402e-04  4.99999985e+03 
 5.79920000e-01 -2.40656567e+00  4.81313151e-04  4.99999984e+03 
 5.81920000e-01 -2.46144939e+00  4.92289896e-04  4.99999984e+03 
 5.83920000e-01 -2.51594441e+00  5.03188902e-04  4.99999984e+03 
