 time            vin             i(v1)           l0             
 2.00000000e-05  6.28318529e-04 -6.28318530e-07  1.00000000e+03 
 4.00000000e-05  1.25663705e-03 -1.25663705e-06  1.00000000e+03 
 8.00000000e-05  2.51327402e-03 -2.51327402e-06  1.00000000e+03 
 1.60000000e-04  5.02654740e-03 -5.02654740e-06  1.00000000e+03 
 3.20000000e-04  1.00530897e-02 -1.00530897e-05  1.00000000e+03 
 6.40000000e-04  2.01061388e-02 -2.01061388e-05  1.00000000e+03 
 1.28000000e-03  4.02119525e-02 -4.02119525e-05  1.00000000e+03 
 2.00000000e-03  6.28301994e-02 -6.28301994e-05  1.00000000e+03 
 2.12800000e-03  6.68510998e-02 -6.68510997e-05  1.00000000e+03 
 2.38400000e-03  7.48927681e-02 -7.48927680e-05  1.00000000e+03 
 2.89600000e-03  9.09755027e-02 -9.09755026e-05  1.00000000e+03 
 3.92000000e-03  1.23137981e-01 -1.23137980e-04  1.00000001e+03 
 5.92000000e-03  1.85939401e-01 -1.85939400e-04  1.00000001e+03 
 7.92000000e-03  2.48711460e-01 -2.48711457e-04  1.00000001e+03 
 9.92000000e-03  3.11444243e-01 -3.11444241e-04  1.00000001e+03 
 1.19200000e-02  3.74127847e-01 -3.74127843e-04  1.00000001e+03 
 1.39200000e-02  4.36752371e-01 -4.36752366e-04  1.00000001e+03 
 1.59200000e-02  4.99307926e-01 -4.99307922e-04  1.00000001e+03 
 1.79200000e-02  5.61784636e-01 -5.61784631e-04  1.00000001e+03 
 1.99200000e-02  6.24172633e-01 -6.24172624e-04  1.00000002e+03 
 2.19200000e-02  6.86462065e-01 -6.86462051e-04  1.00000002e+03 
 2.39200000e-02  7.48643098e-01 -7.48643079e-04  1.00000003e+03 
 2.59200000e-02  8.10705911e-01 -8.10705890e-04  1.00000003e+03 
 2.79200000e-02  8.72640704e-01 -8.72640681e-04  1.00000003e+03 
 2.99200000e-02  9.34437698e-01 -9.34437671e-04  1.00000003e+03 
 3.19200000e-02  9.96087132e-01 -9.96087100e-04  1.00000003e+03 
 3.39200000e-02  1.05757927e+00 -1.05757923e-03  1.00000004e+03 
 3.59200000e-02  1.11890441e+00 -1.11890436e-03  1.00000005e+03 
 3.79200000e-02  1.18005286e+00 -1.18005280e-03  1.00000005e+03 
 3.99200000e-02  1.24101496e+00 -1.24101489e-03  1.00000006e+03 
 4.19200000e-02  1.30178110e+00 -1.30178102e-03  1.00000006e+03 
 4.39200000e-02  1.36234167e+00 -1.36234158e-03  1.00000006e+03 
 4.59200000e-02  1.42268710e+00 -1.42268701e-03  1.00000007e+03 
 4.79200000e-02  1.48280788e+00 -1.48280777e-03  1.00000008e+03 
 4.99200000e-02  1.54269451e+00 -1.54269439e-03  1.00000008e+03 
 5.19200000e-02  1.60233753e+00 -1.60233740e-03  1.00000008e+03 
 5.39200000e-02  1.66172752e+00 -1.66172738e-03  1.00000009e+03 
 5.59200000e-02  1.72085510e+00 -1.72085495e-03  1.00000009e+03 
 5.79200000e-02  1.77971094e+00 -1.77971078e-03  1.00000009e+03 
 5.99200000e-02  1.83828575e+00 -1.83828557e-03  1.00000010e+03 
 6.19200000e-02  1.89657027e+00 -1.89657007e-03  1.00000010e+03 
 6.39200000e-02  1.95455529e+00 -1.95455509e-03  1.00000010e+03 
 6.59200000e-02  2.01223167e+00 -2.01223146e-03  1.00000011e+03 
 6.79200000e-02  2.06959030e+00 -2.06959006e-03  1.00000012e+03 
 6.99200000e-02  2.12662211e+00 -2.12662186e-03  1.00000012e+03 
 7.19200000e-02  2.18331811e+00 -2.18331784e-03  1.00000012e+03 
 7.39200000e-02  2.23966933e+00 -2.23966904e-03  1.00000013e+03 
 7.59200000e-02  2.29566688e+00 -2.29566655e-03  1.00000015e+03 
 7.79200000e-02  2.35130192e+00 -2.35130154e-03  1.00000016e+03 
 7.99200000e-02  2.40656567e+00 -2.40656526e-03  1.00000017e+03 
 8.19200000e-02  2.46144939e+00 -2.46144894e-03  1.00000018e+03 
 8.39200000e-02  2.51594441e+00 -2.51594393e-03  1.00000019e+03 
 8.59200000e-02  2.57004214e+00 -2.57004165e-03  1.00000019e+03 
 8.79200000e-02  2.62373404e+00 -2.62373352e-03  1.00000020e+03 
 8.99200000e-02  2.67701161e+00 -2.67701103e-03  1.00000022e+03 
 9.19200000e-02  2.72986645e+00 -2.72986581e-03  1.00000024e+03 
 9.39200000e-02  2.78229022e+00 -2.78228954e-03  1.00000024e+03 
 9.59200000e-02  2.83427462e+00 -2.83427392e-03  1.00000025e+03 
 9.79200000e-02  2.88581147e+00 -2.88581072e-03  1.00000026e+03 
 9.99200000e-02  2.93689261e+00 -2.93689182e-03  1.00000027e+03 
 1.01920000e-01  2.98750998e+00 -2.98750914e-03  1.00000028e+03 
 1.03920000e-01  3.03765559e+00 -3.03765468e-03  1.00000030e+03 
 1.05920000e-01  3.08732152e+00 -3.08732054e-03  1.00000032e+03 
 1.07920000e-01  3.13649992e+00 -3.13649888e-03  1.00000033e+03 
 1.09920000e-01  3.18518304e+00 -3.18518194e-03  1.00000035e+03 
 1.11920000e-01  3.23336317e+00 -3.23336202e-03  1.00000036e+03 
 1.13920000e-01  3.28103272e+00 -3.28103150e-03  1.00000037e+03 
 1.15920000e-01  3.32818416e+00 -3.32818288e-03  1.00000039e+03 
 1.17920000e-01  3.37481004e+00 -3.37480873e-03  1.00000039e+03 
 1.19920000e-01  3.42090300e+00 -3.42090163e-03  1.00000040e+03 
 1.21920000e-01  3.46645576e+00 -3.46645430e-03  1.00000042e+03 
 1.23920000e-01  3.51146112e+00 -3.51145959e-03  1.00000044e+03 
 1.25920000e-01  3.55591198e+00 -3.55591039e-03  1.00000045e+03 
 1.27920000e-01  3.59980133e+00 -3.59979965e-03  1.00000047e+03 
 1.29920000e-01  3.64312222e+00 -3.64312043e-03  1.00000049e+03 
 1.31920000e-01  3.68586782e+00 -3.68586596e-03  1.00000051e+03 
 1.33920000e-01  3.72803139e+00 -3.72802947e-03  1.00000052e+03 
 1.35920000e-01  3.76960625e+00 -3.76960431e-03  1.00000052e+03 
 1.37920000e-01  3.81058584e+00 -3.81058385e-03  1.00000052e+03 
 1.39920000e-01  3.85096371e+00 -3.85096163e-03  1.00000054e+03 
 1.41920000e-01  3.89073346e+00 -3.89073130e-03  1.00000056e+03 
 1.43920000e-01  3.92988881e+00 -3.92988660e-03  1.00000056e+03 
 1.45920000e-01  3.96842360e+00 -3.96842133e-03  1.00000057e+03 
 1.47920000e-01  4.00633172e+00 -4.00632934e-03  1.00000060e+03 
 1.49920000e-01  4.04360720e+00 -4.04360470e-03  1.00000062e+03 
 1.51920000e-01  4.08024414e+00 -4.08024156e-03  1.00000063e+03 
 1.53920000e-01  4.11623677e+00 -4.11623409e-03  1.00000065e+03 
 1.55920000e-01  4.15157939e+00 -4.15157663e-03  1.00000067e+03 
 1.57920000e-01  4.18626643e+00 -4.18626358e-03  1.00000068e+03 
 1.59920000e-01  4.22029241e+00 -4.22028948e-03  1.00000070e+03 
 1.61920000e-01  4.25365196e+00 -4.25364893e-03  1.00000071e+03 
 1.63920000e-01  4.28633981e+00 -4.28633669e-03  1.00000073e+03 
 1.65920000e-01  4.31835080e+00 -4.31834759e-03  1.00000074e+03 
 1.67920000e-01  4.34967986e+00 -4.34967656e-03  1.00000076e+03 
 1.69920000e-01  4.38032207e+00 -4.38031867e-03  1.00000078e+03 
 1.71920000e-01  4.41027257e+00 -4.41026908e-03  1.00000079e+03 
 1.73920000e-01  4.43952663e+00 -4.43952305e-03  1.00000081e+03 
 1.75920000e-01  4.46807965e+00 -4.46807597e-03  1.00000082e+03 
 1.77920000e-01  4.49592710e+00 -4.49592333e-03  1.00000084e+03 
 1.79920000e-01  4.52306459e+00 -4.52306073e-03  1.00000085e+03 
 1.81920000e-01  4.54948784e+00 -4.54948388e-03  1.00000087e+03 
 1.83920000e-01  4.57519267e+00 -4.57518862e-03  1.00000089e+03 
 1.84170000e-01  4.57835506e+00 -4.57835100e-03  1.00000089e+03 
 1.84670000e-01  4.58464593e+00 -4.58464185e-03  1.00000089e+03 
 1.85670000e-01  4.59709188e+00 -4.59708775e-03  1.00000090e+03 
 1.85701250e-01  4.59747789e+00 -4.59747376e-03  1.00000090e+03 
 1.85763750e-01  4.59824939e+00 -4.59824525e-03  1.00000090e+03 
 1.85888750e-01  4.59979025e+00 -4.59978611e-03  1.00000090e+03 
 1.85892656e-01  4.59983836e+00 -4.59983422e-03  1.00000090e+03 
 1.85900469e-01  4.59993456e+00 -4.59993042e-03  1.00000090e+03 
 1.85902422e-01  4.59995861e+00 -4.59995447e-03  1.00000090e+03 
 1.85906328e-01  4.60000671e+00 -4.06700649e-03  1.13105468e+03 
 1.85910902e-01  4.60006302e+00 -1.68769167e-03  2.72565370e+03 
 1.85915093e-01  4.60011463e+00 -7.13322918e-04  6.44885302e+03 
 1.85915683e-01  4.60012189e+00 -6.41768713e-04  7.16788125e+03 
 1.85916863e-01  4.60013641e+00 -5.29261218e-04  8.69161823e+03 
 1.85919223e-01  4.60016546e+00 -4.46573104e-04  1.03010357e+04 
 1.85921888e-01  4.60019826e+00 -4.46576288e-04  1.03010357e+04 
 1.85925407e-01  4.60024158e+00 -4.46580494e-04  1.03010357e+04 
 1.85929341e-01  4.60029000e+00 -4.46585194e-04  1.03010357e+04 
 1.85937209e-01  4.60038684e+00 -4.46594595e-04  1.03010357e+04 
 1.85952944e-01  4.60058047e+00 -4.46613392e-04  1.03010357e+04 
 1.85984416e-01  4.60096760e+00 -4.46650974e-04  1.03010357e+04 
 1.86047359e-01  4.60174133e+00 -4.46726086e-04  1.03010357e+04 
 1.86173245e-01  4.60328662e+00 -4.46876099e-04  1.03010357e+04 
 1.86425018e-01  4.60636857e+00 -4.47175287e-04  1.03010357e+04 
 1.86928562e-01  4.61249787e+00 -4.47770305e-04  1.03010357e+04 
 1.87935651e-01  4.62461791e+00 -4.48946889e-04  1.03010357e+04 
 1.89935651e-01  4.64813786e+00 -4.51230150e-04  1.03010357e+04 
 1.91935651e-01  4.67092382e+00 -4.53442157e-04  1.03010357e+04 
 1.93935651e-01  4.69297218e+00 -4.55582560e-04  1.03010357e+04 
 1.95935651e-01  4.71427948e+00 -4.57651021e-04  1.03010357e+04 
 1.97935651e-01  4.73484233e+00 -4.59647213e-04  1.03010357e+04 
 1.99935651e-01  4.75465749e+00 -4.61570822e-04  1.03010357e+04 
 2.01935651e-01  4.77372184e+00 -4.63421544e-04  1.03010357e+04 
 2.03935651e-01  4.79203237e+00 -4.65199086e-04  1.03010357e+04 
 2.05935651e-01  4.80958617e+00 -4.66903168e-04  1.03010357e+04 
 2.07935651e-01  4.82638049e+00 -4.68533520e-04  1.03010357e+04 
 2.09935651e-01  4.84241267e+00 -4.70089886e-04  1.03010357e+04 
 2.11935651e-01  4.85768017e+00 -4.71572018e-04  1.03010357e+04 
 2.13935651e-01  4.87218059e+00 -4.72979684e-04  1.03010357e+04 
 2.15935651e-01  4.88591163e+00 -4.74312661e-04  1.03010357e+04 
 2.17935651e-01  4.89887113e+00 -4.75570739e-04  1.03010357e+04 
 2.19935651e-01  4.91105705e+00 -4.76753719e-04  1.03010357e+04 
 2.21935651e-01  4.92246745e+00 -4.77861413e-04  1.03010357e+04 
 2.23935651e-01  4.93310054e+00 -4.78893648e-04  1.03010357e+04 
 2.25935651e-01  4.94295463e+00 -4.79850260e-04  1.03010357e+04 
 2.27935651e-01  4.95202817e+00 -4.80731098e-04  1.03010357e+04 
 2.29935651e-01  4.96031973e+00 -4.81536023e-04  1.03010357e+04 
 2.31935651e-01  4.96782800e+00 -4.82264907e-04  1.03010357e+04 
 2.33935651e-01  4.97455179e+00 -4.82917637e-04  1.03010357e+04 
 2.35935651e-01  4.98049004e+00 -4.83494108e-04  1.03010357e+04 
 2.37935651e-01  4.98564182e+00 -4.83994230e-04  1.03010357e+04 
 2.39935651e-01  4.99000630e+00 -4.84417924e-04  1.03010357e+04 
 2.41935651e-01  4.99358280e+00 -4.84765122e-04  1.03010357e+04 
 2.43935651e-01  4.99637076e+00 -4.85035771e-04  1.03010357e+04 
 2.45935651e-01  4.99836974e+00 -4.85229826e-04  1.03010357e+04 
 2.47935651e-01  4.99957941e+00 -4.85347259e-04  1.03010357e+04 
 2.49935651e-01  4.99999959e+00 -4.85388049e-04  1.03010357e+04 
 2.51935651e-01  4.99963022e+00 -4.85352191e-04  1.03010357e+04 
 2.53935651e-01  4.99847134e+00 -4.85239690e-04  1.03010357e+04 
 2.55935651e-01  4.99652315e+00 -4.85050564e-04  1.03010357e+04 
 2.57935651e-01  4.99378595e+00 -4.84784843e-04  1.03010357e+04 
 2.59935651e-01  4.99026017e+00 -4.84442569e-04  1.03010357e+04 
 2.61935651e-01  4.98594637e+00 -4.84023796e-04  1.03010357e+04 
 2.63935651e-01  4.98084524e+00 -4.83528590e-04  1.03010357e+04 
 2.65935651e-01  4.97495757e+00 -4.82957029e-04  1.03010357e+04 
 2.67935651e-01  4.96828429e+00 -4.82309203e-04  1.03010357e+04 
 2.69935651e-01  4.96082647e+00 -4.81585216e-04  1.03010357e+04 
 2.71935651e-01  4.95258528e+00 -4.80785180e-04  1.03010357e+04 
 2.73935651e-01  4.94356201e+00 -4.79909223e-04  1.03010357e+04 
 2.75935651e-01  4.93375810e+00 -4.78957483e-04  1.03010357e+04 
 2.77935651e-01  4.92317509e+00 -4.77930109e-04  1.03010357e+04 
 2.79935651e-01  4.91181466e+00 -4.76827265e-04  1.03010357e+04 
 2.81935651e-01  4.89967859e+00 -4.75649125e-04  1.03010357e+04 
 2.83935651e-01  4.88676881e+00 -4.74395874e-04  1.03010357e+04 
 2.85935651e-01  4.87308734e+00 -4.73067710e-04  1.03010357e+04 
 2.87935651e-01  4.85863637e+00 -4.71664844e-04  1.03010357e+04 
 2.89935651e-01  4.84341815e+00 -4.70187496e-04  1.03010357e+04 
 2.91935651e-01  4.82743511e+00 -4.68635900e-04  1.03010357e+04 
 2.93935651e-01  4.81068976e+00 -4.67010301e-04  1.03010357e+04 
 2.95935651e-01  4.79318474e+00 -4.65310956e-04  1.03010357e+04 
 2.97935651e-01  4.77492282e+00 -4.63538132e-04  1.03010357e+04 
 2.99935651e-01  4.75590689e+00 -4.61692111e-04  1.03010357e+04 
 3.01935651e-01  4.73613995e+00 -4.59773183e-04  1.03010357e+04 
 3.03935651e-01  4.71562511e+00 -4.57781652e-04  1.03010357e+04 
 3.05935651e-01  4.69436562e+00 -4.55717831e-04  1.03010357e+04 
 3.07935651e-01  4.67236484e+00 -4.53582048e-04  1.03010357e+04 
 3.09935651e-01  4.64962624e+00 -4.51374638e-04  1.03010357e+04 
 3.11935651e-01  4.62615341e+00 -4.49095952e-04  1.03010357e+04 
 3.13935651e-01  4.60195005e+00 -4.46746348e-04  1.03010357e+04 
 3.15935651e-01  4.57701999e+00 -4.44326197e-04  1.03010357e+04 
 3.17935651e-01  4.55136717e+00 -4.41835882e-04  1.03010357e+04 
 3.19935651e-01  4.52499564e+00 -4.39275796e-04  1.03010357e+04 
 3.21935651e-01  4.49790955e+00 -4.36646344e-04  1.03010357e+04 
 3.23935651e-01  4.47011319e+00 -4.33947940e-04  1.03010357e+04 
 3.25935651e-01  4.44161095e+00 -4.31181010e-04  1.03010357e+04 
 3.27935651e-01  4.41240733e+00 -4.28345992e-04  1.03010357e+04 
 3.29935651e-01  4.38250694e+00 -4.25443333e-04  1.03010357e+04 
 3.31935651e-01  4.35191450e+00 -4.22473492e-04  1.03010357e+04 
 3.33935651e-01  4.32063484e+00 -4.19436937e-04  1.03010357e+04 
 3.35935651e-01  4.28867291e+00 -4.16334149e-04  1.03010357e+04 
 3.37935651e-01  4.25603374e+00 -4.13165616e-04  1.03010357e+04 
 3.39935651e-01  4.22272249e+00 -4.09931840e-04  1.03010357e+04 
 3.41935651e-01  4.18874443e+00 -4.06633331e-04  1.03010357e+04 
 3.43935651e-01  4.15410492e+00 -4.03270609e-04  1.03010357e+04 
 3.45935651e-01  4.11880943e+00 -3.99844207e-04  1.03010357e+04 
 3.47935651e-01  4.08286352e+00 -3.96354664e-04  1.03010357e+04 
 3.49935651e-01  4.04627289e+00 -3.92802533e-04  1.03010357e+04 
 3.51935651e-01  4.00904330e+00 -3.89188373e-04  1.03010357e+04 
 3.53935651e-01  3.97118064e+00 -3.85512756e-04  1.03010357e+04 
 3.55935651e-01  3.93269089e+00 -3.81776262e-04  1.03010357e+04 
 3.57935651e-01  3.89358011e+00 -3.77979482e-04  1.03010357e+04 
 3.59935651e-01  3.85385450e+00 -3.74123013e-04  1.03010357e+04 
 3.61935651e-01  3.81352031e+00 -3.70207467e-04  1.03010357e+04 
 3.63935651e-01  3.77258393e+00 -3.66233460e-04  1.03010357e+04 
 3.65935651e-01  3.73105181e+00 -3.62201621e-04  1.03010357e+04 
 3.67935651e-01  3.68893052e+00 -3.58112587e-04  1.03010357e+04 
 3.69935651e-01  3.64622670e+00 -3.53967002e-04  1.03010357e+04 
 3.71935651e-01  3.60294710e+00 -3.49765521e-04  1.03010357e+04 
 3.73935651e-01  3.55909855e+00 -3.45508809e-04  1.03010357e+04 
 3.75935651e-01  3.51468798e+00 -3.41197536e-04  1.03010357e+04 
 3.77935651e-01  3.46972240e+00 -3.36832385e-04  1.03010357e+04 
 3.79935651e-01  3.42420891e+00 -3.32414044e-04  1.03010357e+04 
 3.81935651e-01  3.37815470e+00 -3.27943210e-04  1.03010357e+04 
 3.83935651e-01  3.33156704e+00 -3.23420591e-04  1.03010357e+04 
 3.85935651e-01  3.28445328e+00 -3.18846900e-04  1.03010357e+04 
 3.87935651e-01  3.23682087e+00 -3.14222859e-04  1.03010357e+04 
 3.89935651e-01  3.18867733e+00 -3.09549199e-04  1.03010357e+04 
 3.91935651e-01  3.14003027e+00 -3.04826658e-04  1.03010357e+04 
 3.93935651e-01  3.09088735e+00 -3.00055981e-04  1.03010357e+04 
 3.95935651e-01  3.04125635e+00 -2.95237921e-04  1.03010357e+04 
 3.97935651e-01  2.99114509e+00 -2.90373240e-04  1.03010357e+04 
 3.99935651e-01  2.94056151e+00 -2.85462706e-04  1.03010357e+04 
 4.01935651e-01  2.88951357e+00 -2.80507093e-04  1.03010357e+04 
 4.03935651e-01  2.83800934e+00 -2.75507186e-04  1.03010357e+04 
 4.05935651e-01  2.78605696e+00 -2.70463773e-04  1.03010357e+04 
 4.07935651e-01  2.73366463e+00 -2.65377650e-04  1.03010357e+04 
 4.09935651e-01  2.68084062e+00 -2.60249621e-04  1.03010357e+04 
 4.11935651e-01  2.62759328e+00 -2.55080496e-04  1.03010357e+04 
 4.13935651e-01  2.57393101e+00 -2.49871090e-04  1.03010357e+04 
 4.15935651e-01  2.51986228e+00 -2.44622227e-04  1.03010357e+04 
 4.17935651e-01  2.46539564e+00 -2.39334736e-04  1.03010357e+04 
 4.19935651e-01  2.41053969e+00 -2.34009450e-04  1.03010357e+04 
 4.21935651e-01  2.35530308e+00 -2.28647212e-04  1.03010357e+04 
 4.23935651e-01  2.29969455e+00 -2.23248868e-04  1.03010357e+04 
 4.25935651e-01  2.24372286e+00 -2.17815270e-04  1.03010357e+04 
 4.27935651e-01  2.18739687e+00 -2.12347277e-04  1.03010357e+04 
 4.29935651e-01  2.13072545e+00 -2.06845751e-04  1.03010357e+04 
 4.31935651e-01  2.07371758e+00 -2.01311562e-04  1.03010357e+04 
 4.33935651e-01  2.01638224e+00 -1.95745584e-04  1.03010357e+04 
 4.35935651e-01  1.95872849e+00 -1.90148695e-04  1.03010357e+04 
 4.37935651e-01  1.90076543e+00 -1.84521780e-04  1.03010357e+04 
 4.39935651e-01  1.84250222e+00 -1.78865726e-04  1.03010357e+04 
 4.41935651e-01  1.78394806e+00 -1.73181428e-04  1.03010357e+04 
 4.43935651e-01  1.72511219e+00 -1.67469782e-04  1.03010357e+04 
 4.45935651e-01  1.66600391e+00 -1.61731690e-04  1.03010357e+04 
 4.47935651e-01  1.60663254e+00 -1.55968060e-04  1.03010357e+04 
 4.49935651e-01  1.54700747e+00 -1.50179800e-04  1.03010357e+04 
 4.51935651e-01  1.48713811e+00 -1.44367825e-04  1.03010357e+04 
 4.53935651e-01  1.42703391e+00 -1.38533053e-04  1.03010357e+04 
 4.55935651e-01  1.36670437e+00 -1.32676405e-04  1.03010357e+04 
 4.57935651e-01  1.30615901e+00 -1.26798805e-04  1.03010357e+04 
 4.59935651e-01  1.24540739e+00 -1.20901183e-04  1.03010357e+04 
 4.61935651e-01  1.18445911e+00 -1.14984469e-04  1.03010357e+04 
 4.63935651e-01  1.12332379e+00 -1.09049597e-04  1.03010357e+04 
 4.65935651e-01  1.06201108e+00 -1.03097505e-04  1.03010357e+04 
 4.67935651e-01  1.00053067e+00 -9.71291335e-05  1.03010357e+04 
 4.69935651e-01  9.38892259e-01 -9.11454237e-05  1.03010357e+04 
 4.71935651e-01  8.77105589e-01 -8.51473210e-05  1.03010357e+04 
 4.73935651e-01  8.15180414e-01 -7.91357726e-05  1.03010357e+04 
 4.75935651e-01  7.53126513e-01 -7.31117277e-05  1.03010357e+04 
 4.77935651e-01  6.90953684e-01 -6.70761376e-05  1.03010357e+04 
 4.79935651e-01  6.28671746e-01 -6.10299554e-05  1.03010357e+04 
 4.81935651e-01  5.66290533e-01 -5.49741359e-05  1.03010357e+04 
 4.83935651e-01  5.03819896e-01 -4.89096353e-05  1.03010357e+04 
 4.85935651e-01  4.41269700e-01 -4.28374113e-05  1.03010357e+04 
 4.87935651e-01  3.78649823e-01 -3.67584228e-05  1.03010357e+04 
 4.89935651e-01  3.15970153e-01 -3.06736297e-05  1.03010357e+04 
 4.91935651e-01  2.53240587e-01 -2.45839929e-05  1.03010357e+04 
 4.93935651e-01  1.90471031e-01 -1.84904740e-05  1.03010357e+04 
 4.95935651e-01  1.27671398e-01 -1.23940352e-05  1.03010357e+04 
 4.97935651e-01  6.48516045e-02 -6.29563928e-06  1.03010357e+04 
 4.99935651e-01  2.02156981e-03 -1.96249182e-07  1.03010357e+04 
 5.01935651e-01 -6.08087841e-02  5.90317190e-06  1.03010357e+04 
 5.03935651e-01 -1.23629536e-01  1.20016608e-05  1.03010357e+04 
 5.05935651e-01 -1.86430765e-01  1.80982545e-05  1.03010357e+04 
 5.07935651e-01 -2.49202554e-01  2.41919903e-05  1.03010357e+04 
 5.09935651e-01 -3.11934991e-01  3.02819059e-05  1.03010357e+04 
 5.11935651e-01 -3.74618171e-01  3.63670396e-05  1.03010357e+04 
 5.13935651e-01 -4.37242193e-01  4.24464306e-05  1.03010357e+04 
 5.15935651e-01 -4.99797170e-01  4.85191187e-05  1.03010357e+04 
 5.17935651e-01 -5.62273224e-01  5.45841452e-05  1.03010357e+04 
 5.19935651e-01 -6.24660487e-01  6.06405522e-05  1.03010357e+04 
 5.21935651e-01 -6.86949110e-01  6.66873833e-05  1.03010357e+04 
 5.23935651e-01 -7.49129256e-01  7.27236838e-05  1.03010357e+04 
 5.25935651e-01 -8.11191105e-01  7.87485003e-05  1.03010357e+04 
 5.27935651e-01 -8.73124858e-01  8.47608816e-05  1.03010357e+04 
 5.29935651e-01 -9.34920734e-01  9.07598781e-05  1.03010357e+04 
 5.31935651e-01 -9.96568976e-01  9.67445426e-05  1.03010357e+04 
 5.33935651e-01 -1.05805985e+00  1.02713930e-04  1.03010357e+04 
 5.35935651e-01 -1.11938364e+00  1.08667098e-04  1.03010357e+04 
